  vcan0  08F02DFE  [07]  E4 BB CC 29 84 35 AA
  vcan0  18FCEAFE  [08]  90 7E 00 00 00 00 00 00
  vcan0  0CF029FE  [08]  00 80 B4 00 80 12 5A 88
  vcan0  18FD09FE  [08]  50 5D 20 3C A0 AB 88 62
  vcan0  18FCFFFE  [08]  80 E9 A0 DF 00 00 00 00
  vcan0  1CFCFAFE  [08]  00 4B 70 17 00 00 00 00
  vcan0  1CFCFEFE  [08]  60 0C C4 D4 A7 32 00 00
  vcan0  18FCF8FE  [08]  20 CB 00 32 A0 F0 00 00
  vcan0  18FD1BFE  [08]  0C 4B C0 76 80 ED 02 00
  vcan0  18FCF9FE  [08]  80 3E 50 5F 40 CE 00 00
  vcan0  18FD1CFE  [08]  A4 E1 50 AA 30 75 1F 00
  vcan0  18FD6EFE  [08]  3C 19 88 81 E1 15 AF 00
  vcan0  1CFEB7FE  [10]  A0 BD 00 EB 2F A0 F4 9F 7B D6
  vcan0  18FEDCFE  [08]  02 AC 36 03 CC 08 F2 B0
  vcan0  18FE6DFE  [08]  D9 09 7D 08 CB 00 00 00
  vcan0  08FE6EFE  [08]  00 BA 00 14 00 1B 00 8A
  vcan0  1CFEB8FE  [22]  12 64 3A A8 40 BF 6E 5E 08 DD 1D 99 F8 F4 84 0A 8A AF 7F 43 00 84
  vcan0  18FE5DFE  [08]  28 CA 50 D9 08 00 00 00
  vcan0  18FE63FE  [08]  80 77 81 35 09 CC EF 00
  vcan0  18FE65FE  [08]  A0 44 00 00 00 00 00 00
  vcan0  18FEC8FE  [08]  04 00 54 88 5C D6 28 00
  vcan0  18FEF3FE  [08]  0E 00 00 00 15 00 00 00
  vcan0  18FEE7FE  [08]  14 B3 1D C5 94 AD 78 86
  vcan0  18FEE8FE  [08]  80 05 00 13 80 97 F0 1F
  vcan0  18FEE0FE  [08]  88 5E CD E1 70 02 33 D1
  vcan0  1CFEB6FE  [08]  00 DB 00 91 A6 28 00 00
  vcan0  1CFEB0FE  [20]  34 78 A8 3C EC CE 0B F7 84 A8 0A 7D 88 1F E7 43 9C 65 53 BE
  vcan0  1CFEB4FE  [16]  34 3A BB 76 58 20 47 22 D0 F1 06 5A 78 BD 68 AC
  vcan0  1CFEBBFE  [16]  78 D6 0B C8 28 C1 2E 74 24 DC 76 0B BC FA F8 72
  vcan0  1CFEBAFE  [12]  40 C9 1A B4 98 16 9E 1D E0 DF 10 10
  vcan0  18D5FEFE  [08]  20 71 18 11 00 8F 56 47
  vcan0  18FE4BFE  [08]  D0 34 00 00 00 00 00 00
  vcan0  0C01FEFE  [08]  3E BE 0B 2A 04 0E 0C 57
  vcan0  18FEDDFE  [08]  8E 8B 0A 80 00 00 00 00
  vcan0  1CFE4DFE  [08]  C8 9B 00 6E 00 00 00 00
  vcan0  18FDE2FE  [08]  A6 4D 4F 0E 67 62 00 00
  vcan0  18FE8FFE  [08]  6E DA 00 00 00 00 00 00
  vcan0  18FEDAFE  [08]  0B BB EF 2B 00 00 00 00
  vcan0  18FEC0FE  [08]  32 60 C0 02 CA E2 5E CE
  vcan0  1CFE8EFE  [08]  15 B9 77 00 00 00 00 00
  vcan0  18FE53FE  [08]  DC 5D 73 EB C2 D9 E7 22
  vcan0  18FEFBFE  [08]  4D F1 03 00 00 00 00 00
  vcan0  1CDEFEFE  [08]  08 8D 05 D6 00 00 00 00
  vcan0  18FEE1FE  [19]  C3 30 28 7A 6A B8 83 A5 D0 37 E9 B8 5D 5E D8 69 55 EA 50
  vcan0  1CFE95FE  [08]  B7 19 89 4D 00 00 00 00
  vcan0  18FEF0FE  [08]  5F B0 AF B0 07 3D C9 2C
  vcan0  18FDCDFE  [08]  4C 00 F5 B9 5F 24 C0 00
  vcan0  0CFDCCFE  [08]  F3 2A F2 8B 81 00 00 00
  vcan0  0CFE75FE  [08]  7E 22 8A 00 00 AE 15 00
  vcan0  0CFE71FE  [08]  7A 49 96 D2 CC E3 51 00
  vcan0  1CFEB9FE  [22]  80 1F F9 36 F8 E1 08 39 FE F6 B1 07 9E CD 2B C0 D2 DD F3 B4 00 DC
  vcan0  0CFE74FE  [08]  3A C0 01 00 00 00 00 00
  vcan0  0CFE73FE  [08]  AA FA 00 00 00 00 00 00
  vcan0  1CFEB3FE  [08]  DE F4 7D A1 58 93 FC 03
  vcan0  18FEF2FE  [08]  58 25 00 8E 00 DC A7 69
  vcan0  18FEE9FE  [08]  86 B8 98 90 AC 5C 4D AB
  vcan0  1CFDD1FE  [08]  0C A5 00 00 00 00 00 00
  vcan0  18FEBDFE  [08]  02 01 80 AD 8C D5 AC 00
  vcan0  0CF00CFE  [08]  10 27 10 70 00 00 00 00
  vcan0  1CFEABFE  [08]  23 E6 44 E8 00 00 00 00
  vcan0  1CFEC5FE  [08]  25 A2 00 00 00 00 00 00
  vcan0  1CFEC7FE  [08]  50 F0 0F 3E EE 15 00 00
  vcan0  18F005FE  [08]  41 A8 61 B2 5D 00 5B 00
  vcan0  0CF002FE  [08]  D1 50 43 87 39 40 10 D7
  vcan0  18FE69FE  [08]  20 0F 20 C8 A0 91 20 37
  vcan0  18FEA4FE  [08]  80 68 80 29 00 CF 40 8A
  vcan0  18FEEEFE  [08]  E0 F5 E0 A3 20 79 11 05
  vcan0  18FE07FE  [08]  20 81 E0 F2 00 00 00 00
  vcan0  18F00BFE  [08]  00 B2 7F 02 2E 09 00 00
  vcan0  18F000FE  [08]  26 C2 7A 6E DF 2F F5 0E
  vcan0  18FDE4FE  [08]  D9 00 00 00 00 00 00 00
  vcan0  18FDD2FE  [08]  E9 C1 61 00 00 00 00 00
  vcan0  18FDE3FE  [08]  CC 00 00 00 00 00 00 00
  vcan0  1CFEA9FE  [08]  90 4C 10 D6 10 27 9B 40
  vcan0  1CFE92FE  [08]  39 80 A8 70 20 C1 5A E7
  vcan0  1CFEB1FE  [08]  E8 8E FA 23 8C 38 DC 9F
  vcan0  0CF00AFE  [08]  A0 1E E8 3F 1C 8E 00 00
  vcan0  18FE6AFE  [07]  37 3C C4 11 6A D0 05
  vcan0  18FDC1FE  [08]  00 64 96 00 02 7A 00 00
  vcan0  18FEDBFE  [08]  00 48 00 1B 00 4A 00 E2
  vcan0  18FEEFFE  [08]  CE 00 78 03 80 EB 7E 82
  vcan0  1CFE93FE  [08]  92 26 0D 00 00 00 00 00
  vcan0  18FDD5FE  [08]  C0 CE 20 6C F0 87 01 69
  vcan0  1CFEBEFE  [08]  4E D5 48 28 03 46 00 00
  vcan0  18FEDFFE  [08]  79 70 0B 5F 0F CA 8F D6
  vcan0  0CF003FE  [08]  4D 4D 4B BB 64 15 5C 34
  vcan0  0CF004FE  [08]  0F 9B 43 98 B7 7F 0C E9
  vcan0  18FE54FE  [08]  E1 34 33 D2 F1 39 88 CE
  vcan0  18FEE3FE  [39]  80 0E C5 00 E6 29 F8 4F 71 60 C3 47 E0 05 F6 98 AE 00 0A 71 BA 60 1A 32 65 85 64 36 00 43 8A 66 F3 23 3D 44 61 B5 CB
  vcan0  18F001FE  [08]  5E 34 6A 7A 55 BD 4B FC
  vcan0  18FE94FE  [08]  1A B6 26 00 00 00 00 00
  vcan0  1CFDC9FE  [08]  25 F7 00 00 00 00 00 00
  vcan0  18E0FEFE  [08]  3C 80 6B 74 04 7E 4A 23
  vcan0  18D0FEFE  [08]  25 00 00 00 00 00 00 00
  vcan0  18FEF1FE  [08]  DC 00 A1 A4 D0 E6 D3 56
  vcan0  18FEEDFE  [08]  7A D8 CC 00 00 00 00 00
  vcan0  18FE67FE  [08]  B7 90 00 00 00 00 00 00
  vcan0  1CFEBCFE  [16]  70 2D 03 6C A0 63 2B 4D 00 E0 A2 33 64 E4 0C 7C
  vcan0  18FDE1FE  [08]  90 00 00 00 00 00 00 00
  vcan0  18FE50FE  [08]  9A 24 00 00 00 00 00 00
  vcan0  18FCF5FE  [08]  80 59 A0 13 39 00 00 00
  vcan0  18FCF4FE  [08]  80 DA A0 1D 80 9D DC 00
  vcan0  18FCF7FE  [08]  40 24 80 33 5A 00 00 00
  vcan0  18FCF6FE  [08]  E0 AB 20 D8 28 00 00 00
  vcan0  18FD14FE  [08]  35 C0 CB E0 38 00 00 00
  vcan0  18FD15FE  [08]  10 08 7F 78 14 00 00 00
  vcan0  18FD61FE  [08]  2C 25 15 85 F2 58 00 00
  vcan0  18FD64FE  [08]  7A E7 B8 14 70 8F 00 00
  vcan0  08A1FEFE  [09]  BB CC 2B 96 CC EA E1 61 A9
  vcan0  18FEFAFE  [08]  28 84 4A 19 00 00 00 00
  vcan0  18FEFEFE  [08]  4B 00 00 00 00 00 00 00
  vcan0  18FD20FE  [08]  20 09 A0 5F 06 90 DA 05
  vcan0  18FD48FE  [08]  8A 02 22 01 06 00 00 00
  vcan0  18FD49FE  [08]  18 06 14 00 02 00 00 00
  vcan0  18F021FE  [08]  C0 7A 80 C2 48 38 F8 00
  vcan0  10FD52FE  [08]  03 BB BB 00 00 00 00 00
  vcan0  18F00EFE  [08]  84 49 32 A7 5D 0A 0D 09
  vcan0  18FDB4FE  [08]  A0 DA E0 F0 09 02 00 00
  vcan0  18FD66FE  [08]  B9 82 2F 60 8F 80 B6 00
  vcan0  18FED5FE  [03]  44 B2 D5
  vcan0  18FDE0FE  [08]  69 07 A4 51 00 00 00 00
  vcan0  14FD53FE  [08]  40 DC 00 B6 E0 00 00 00
  vcan0  08F02DFE  [07]  88 DB 3C 41 AC 0D 36
  vcan0  18FCEAFE  [08]  80 BB 00 00 00 00 00 00
  vcan0  0CF029FE  [08]  00 00 D4 00 00 2C 68 D6
  vcan0  18FD09FE  [08]  68 19 75 7C 28 0F D2 23
  vcan0  18FCFFFE  [08]  A0 29 00 E3 00 00 00 00
  vcan0  1CFCFAFE  [08]  00 FA 20 1C 00 00 00 00
  vcan0  1CFCFEFE  [08]  40 8C 86 5C 73 05 00 00
  vcan0  18FCF8FE  [08]  70 49 80 BB 20 03 00 00
  vcan0  18FD1BFE  [08]  37 32 C0 12 E0 47 17 00
  vcan0  18FCF9FE  [08]  60 B8 60 B8 80 70 00 00
  vcan0  18FD1CFE  [08]  7F 57 40 38 20 67 0F 00
  vcan0  18FD6EFE  [08]  8C A5 6C B1 A2 2B B2 00
  vcan0  1CFEB7FE  [10]  50 C0 60 F7 19 11 80 08 23 59
  vcan0  18FEDCFE  [08]  24 7D D4 F1 40 D8 6F D6
  vcan0  18FE6DFE  [08]  02 10 FA 02 FF 00 00 00
  vcan0  08FE6EFE  [08]  00 A5 00 61 00 80 00 BF
  vcan0  1CFEB8FE  [22]  0E FC 09 2B C4 4B 49 57 E0 D0 D9 86 CE E5 C2 B6 3C 48 92 7C 00 6E
  vcan0  18FE5DFE  [08]  F0 32 C8 5C 9B 00 00 00
  vcan0  18FE63FE  [08]  20 63 0D E5 01 5F EB 00
  vcan0  18FE65FE  [08]  20 2D 00 00 00 00 00 00
  vcan0  18FEC8FE  [08]  01 00 2E 23 DA 72 5A 00
  vcan0  18FEF3FE  [08]  26 00 00 00 21 00 00 00
  vcan0  18FEE7FE  [08]  0C D7 0A 7B 78 F0 56 09
  vcan0  18FEE8FE  [08]  80 72 00 3A 00 E6 30 82
  vcan0  18FEE0FE  [08]  E8 58 88 F2 90 2B C9 58
  vcan0  1CFEB6FE  [08]  00 E0 58 09 19 DC 00 00
  vcan0  1CFEB0FE  [20]  20 22 E4 D8 F8 DA 25 8E D4 AE 86 7D 78 ED 72 F4 50 3A 62 81
  vcan0  1CFEB4FE  [16]  F0 B4 62 25 94 36 46 3A EC C3 AB 76 58 7A A8 8E
  vcan0  1CFEBBFE  [16]  B8 AD E2 AC 74 8E 79 F1 30 EE A5 95 2C CF 04 DC
  vcan0  1CFEBAFE  [12]  E8 F8 63 B8 70 9A A9 3B 60 29 38 41
  vcan0  18D5FEFE  [08]  80 3D 02 AA 00 50 48 06
  vcan0  18FE4BFE  [08]  6B 11 00 00 00 00 00 00
  vcan0  0C01FEFE  [08]  32 87 2E 12 34 8B A4 8E
  vcan0  18FEDDFE  [08]  28 C7 48 40 00 00 00 00
  vcan0  1CFE4DFE  [08]  60 63 00 04 00 00 00 00
  vcan0  18FDE2FE  [08]  43 59 E5 B2 B0 89 00 00
  vcan0  18FE8FFE  [08]  8C B8 00 00 00 00 00 00
  vcan0  18FEDAFE  [08]  4A 2F 27 37 00 00 00 00
  vcan0  18FEC0FE  [08]  4D 8A CA 8D 18 6D EE 2F
  vcan0  1CFE8EFE  [08]  64 5D E5 00 00 00 00 00
  vcan0  18FE53FE  [08]  AD 39 C3 1E 6B 4D B2 5C
  vcan0  18FEFBFE  [08]  67 7D 03 00 00 00 00 00
  vcan0  1CDEFEFE  [08]  0E 26 00 EC 00 00 00 00
  vcan0  18FEE1FE  [19]  D7 55 D0 EC 1A 88 D2 78 B0 10 A1 30 80 A6 98 83 A9 B3 D9
  vcan0  1CFE95FE  [08]  F0 0D E3 7F 00 00 00 00
  vcan0  18FEF0FE  [08]  6B E0 CF A8 57 24 72 14
  vcan0  18FDCDFE  [08]  43 C0 E8 7A 28 48 80 00
  vcan0  0CFDCCFE  [08]  CC DD 1E B0 34 00 00 00
  vcan0  0CFE75FE  [08]  18 88 16 00 00 02 21 00
  vcan0  0CFE71FE  [08]  66 7B EC C7 99 8E 24 00
  vcan0  1CFEB9FE  [22]  C2 F4 E5 71 B2 4B 41 1D 6A 90 A2 3A EE F1 27 63 BE 25 04 1E 00 32
  vcan0  0CFE74FE  [08]  F0 C3 04 00 00 00 00 00
  vcan0  0CFE73FE  [08]  DE BC 00 00 00 00 00 00
  vcan0  1CFEB3FE  [08]  4C 29 26 A4 F4 10 6E 00
  vcan0  18FEF2FE  [08]  FC F8 00 60 00 7A A7 14
  vcan0  18FEE9FE  [08]  E0 99 8A 38 10 CE 5C 72
  vcan0  1CFDD1FE  [08]  0F 9C 00 00 00 00 00 00
  vcan0  18FEBDFE  [08]  A2 0C 08 53 88 E8 AF 00
  vcan0  0CF00CFE  [08]  28 23 C8 74 00 00 00 00
  vcan0  1CFEABFE  [08]  1B 7C 11 34 00 00 00 00
  vcan0  1CFEC5FE  [08]  4D 2A 00 00 00 00 00 00
  vcan0  1CFEC7FE  [08]  4B 0A 32 1D A0 02 00 00
  vcan0  18F005FE  [08]  53 D0 07 7B 64 00 AA 00
  vcan0  0CF002FE  [08]  7D 68 DF 28 21 30 9D 95
  vcan0  18FE69FE  [08]  20 0F 20 C4 E0 59 A0 30
  vcan0  18FEA4FE  [08]  C0 0D C0 1F 80 AA 20 E1
  vcan0  18FEEEFE  [08]  20 2B 80 31 20 8A B9 4D
  vcan0  18FE07FE  [08]  40 4D 60 B6 00 00 00 00
  vcan0  18F00BFE  [08]  00 C5 54 11 BA 0A 00 00
  vcan0  18F000FE  [08]  A8 8B 6E D2 83 06 B1 CD
  vcan0  18FDE4FE  [08]  A4 00 00 00 00 00 00 00
  vcan0  18FDD2FE  [08]  FC C5 E3 00 00 00 00 00
  vcan0  18FDE3FE  [08]  0D 00 00 00 00 00 00 00
  vcan0  1CFEA9FE  [08]  B0 9A 90 33 60 86 C3 C0
  vcan0  1CFE92FE  [08]  ED 00 A3 25 08 16 96 1C
  vcan0  1CFEB1FE  [08]  B0 C3 75 E2 54 C8 60 BE
  vcan0  0CF00AFE  [08]  3C BE 78 CD B8 92 00 00
  vcan0  18FE6AFE  [07]  3C 20 E4 37 B5 D5 1D
  vcan0  18FDC1FE  [08]  00 51 D2 00 DA 41 00 00
  vcan0  18FEDBFE  [08]  00 72 00 F0 00 51 00 6F
  vcan0  18FEEFFE  [08]  88 00 48 C6 00 03 CC 84
  vcan0  1CFE93FE  [08]  B4 38 06 00 00 00 00 00
  vcan0  18FDD5FE  [08]  A0 2F A0 B6 B0 36 33 87
  vcan0  1CFEBEFE  [08]  66 3A 18 24 08 3C 00 00
  vcan0  18FEDFFE  [08]  FA 98 68 F0 3D 65 6D 83
  vcan0  0CF003FE  [08]  58 19 8C D9 0A 1B C8 24
  vcan0  0CF004FE  [08]  0A CA 18 B0 76 B6 0B 7D
  vcan0  18FE54FE  [08]  4A 74 DC C7 36 D7 2D CC
  vcan0  18FEE3FE  [39]  A8 0F B4 F0 98 75 A0 62 3A 98 AC 6E 20 1D 7B D0 81 00 D7 4F 9D 78 41 AA CB D0 DF B7 18 D5 E2 04 CC 36 F4 82 E8 59 9F
  vcan0  18F001FE  [08]  12 5C A1 2C 82 82 91 F0
  vcan0  18FE94FE  [08]  2E 76 20 00 00 00 00 00
  vcan0  1CFDC9FE  [08]  A9 87 00 00 00 00 00 00
  vcan0  18E0FEFE  [08]  C5 00 72 E6 EC 6E 53 34
  vcan0  18D0FEFE  [08]  89 00 00 00 00 00 00 00
  vcan0  18FEF1FE  [08]  42 00 13 61 18 70 AF BA
  vcan0  18FEEDFE  [08]  9C DA F9 00 00 00 00 00
  vcan0  18FE67FE  [08]  32 62 00 00 00 00 00 00
  vcan0  1CFEBCFE  [16]  B8 9F 1C 08 A8 E6 87 98 50 27 AD 00 1D C2 7E 65
  vcan0  18FDE1FE  [08]  2E 00 00 00 00 00 00 00
  vcan0  18FE50FE  [08]  91 F2 00 00 00 00 00 00
  vcan0  18FCF5FE  [08]  20 F9 00 22 1E 00 00 00
  vcan0  18FCF4FE  [08]  C0 DA C0 71 00 07 7F 00
  vcan0  18FCF7FE  [08]  80 9E 00 2D FA 00 00 00
  vcan0  18FCF6FE  [08]  00 F0 20 4B AF 00 00 00
  vcan0  18FD14FE  [08]  39 94 4D 60 F9 00 00 00
  vcan0  18FD15FE  [08]  26 F0 C8 44 BB 00 00 00
  vcan0  18FD61FE  [08]  1C 6D 46 94 A0 0A 00 00
  vcan0  18FD64FE  [08]  53 22 C2 78 84 4C 00 00
  vcan0  08A1FEFE  [09]  30 C9 6C 9A 98 BE 5D 9B 08
  vcan0  18FEFAFE  [08]  24 E4 87 07 00 00 00 00
  vcan0  18FEFEFE  [08]  A1 00 00 00 00 00 00 00
  vcan0  18FD20FE  [08]  40 72 00 08 EC 86 94 49
  vcan0  18FD48FE  [08]  7A 03 EE 02 02 00 00 00
  vcan0  18FD49FE  [08]  C8 05 A4 06 0D 00 00 00
  vcan0  18F021FE  [08]  68 11 BC D7 5A 76 00 00
  vcan0  10FD52FE  [08]  00 35 07 00 00 00 00 00
  vcan0  18F00EFE  [08]  38 B3 66 44 CA 63 1B 14
  vcan0  18FDB4FE  [08]  60 2F C0 CB 17 01 00 00
  vcan0  18FD66FE  [08]  74 AD 3E 80 02 E0 7C 00
  vcan0  18FED5FE  [03]  9C B5 6B
  vcan0  18FDE0FE  [08]  A2 55 70 AD 00 00 00 00
  vcan0  14FD53FE  [08]  80 04 60 9F 80 3E 00 00
  vcan0  08F02DFE  [07]  A4 38 30 D9 44 7A 3F
  vcan0  18FCEAFE  [08]  60 D1 00 00 00 00 00 00
  vcan0  0CF029FE  [08]  00 00 75 00 00 1B 52 F2
  vcan0  18FD09FE  [08]  C8 79 FA BD C0 3A 24 36
  vcan0  18FCFFFE  [08]  A0 21 60 79 00 00 00 00
  vcan0  1CFCFAFE  [08]  10 D6 A0 A5 00 00 00 00
  vcan0  1CFCFEFE  [08]  40 11 20 C7 A5 16 00 00
  vcan0  18FCF8FE  [08]  E0 AB 80 89 40 06 00 00
  vcan0  18FD1BFE  [08]  A9 BB 00 64 20 35 1E 00
  vcan0  18FCF9FE  [08]  00 19 D0 B6 30 8E 00 00
  vcan0  18FD1CFE  [08]  76 64 60 B8 F0 23 11 00
  vcan0  18FD6EFE  [08]  80 89 F0 AF 20 AF E0 00
  vcan0  1CFEB7FE  [10]  A0 5B A0 8C 7D 0A AC 74 86 30
  vcan0  18FEDCFE  [08]  4A 4E F8 89 58 86 EF EF
  vcan0  18FE6DFE  [08]  0E 9B 57 08 B6 00 00 00
  vcan0  08FE6EFE  [08]  00 BB 00 B4 00 BA 00 74
  vcan0  1CFEB8FE  [22]  CE 59 8B 83 0C 32 79 07 FA 61 7F 1A 7E E0 59 BF D6 C0 68 A4 00 18
  vcan0  18FE5DFE  [08]  C8 30 08 B2 18 00 00 00
  vcan0  18FE63FE  [08]  40 1A 31 8B 01 BF 9F 00
  vcan0  18FE65FE  [08]  60 27 00 00 00 00 00 00
  vcan0  18FEC8FE  [08]  00 00 B8 E8 71 A1 F0 00
  vcan0  18FEF3FE  [08]  0B 00 00 00 11 00 00 00
  vcan0  18FEE7FE  [08]  40 17 A1 4D B4 64 C2 92
  vcan0  18FEE8FE  [08]  00 7D 00 1E 80 B6 A8 2E
  vcan0  18FEE0FE  [08]  58 B0 D7 EC C8 E2 8F 5F
  vcan0  1CFEB6FE  [08]  00 6F C0 BE 03 83 00 00
  vcan0  1CFEB0FE  [20]  14 B9 4B 96 6C EB 6F 83 E0 6F 57 C6 E0 3B D6 53 A4 84 4C 71
  vcan0  1CFEB4FE  [16]  88 59 48 76 C0 E4 DC 9B 50 80 E7 0B 60 F1 04 68
  vcan0  1CFEBBFE  [16]  2C C8 C9 14 40 D3 97 0E 40 AE 04 9E 98 9B 79 2F
  vcan0  1CFEBAFE  [12]  10 EB 1B AD 90 0B F1 AA 98 7B B3 D3
  vcan0  18D5FEFE  [08]  10 A2 33 F7 B4 72 4E 79
  vcan0  18FE4BFE  [08]  D8 60 00 00 00 00 00 00
  vcan0  0C01FEFE  [08]  5A 0A 4B F3 34 41 6C EE
  vcan0  18FEDDFE  [08]  C7 0A C4 C0 00 00 00 00
  vcan0  1CFE4DFE  [08]  44 75 00 38 00 00 00 00
  vcan0  18FDE2FE  [08]  27 E9 5E 50 86 B9 00 00
  vcan0  18FE8FFE  [08]  66 9C 00 00 00 00 00 00
  vcan0  18FEDAFE  [08]  0A D8 15 F7 00 00 00 00
  vcan0  18FEC0FE  [08]  21 98 1B 73 A2 3A 7C BA
  vcan0  1CFE8EFE  [08]  E3 F6 36 00 00 00 00 00
  vcan0  18FE53FE  [08]  B3 95 2F 20 95 2E 8B 03
  vcan0  18FEFBFE  [08]  AA 75 03 00 00 00 00 00
  vcan0  1CDEFEFE  [08]  0C 24 08 B4 00 00 00 00
  vcan0  18FEE1FE  [19]  5A 73 30 82 52 58 49 B9 20 AB 7D 28 D1 DB 38 4D AD 08 AB
  vcan0  1CFE95FE  [08]  82 CA BB AA 00 00 00 00
  vcan0  18FEF0FE  [08]  B8 B0 41 18 DB 0D 88 3F
  vcan0  18FDCDFE  [08]  B1 C0 E6 55 69 14 20 00
  vcan0  0CFDCCFE  [08]  B1 A0 CD 0F 27 00 00 00
  vcan0  0CFE75FE  [08]  E8 99 93 00 00 06 EF 00
  vcan0  0CFE71FE  [08]  EE ED 6E AF CD ED 92 00
  vcan0  1CFEB9FE  [22]  F0 AF CC F2 2E 5D B7 90 32 96 D9 8F E0 A5 83 7A 62 A9 A9 AB 00 72
  vcan0  0CFE74FE  [08]  6E F5 02 00 00 00 00 00
  vcan0  0CFE73FE  [08]  C8 96 00 00 00 00 00 00
  vcan0  1CFEB3FE  [08]  DE AC B9 94 38 AE 0A 00
  vcan0  18FEF2FE  [08]  64 23 00 2C 00 1C C5 AA
  vcan0  18FEE9FE  [08]  54 4D 60 23 2A 48 1C 0D
  vcan0  1CFDD1FE  [08]  08 45 00 00 00 00 00 00
  vcan0  18FEBDFE  [08]  50 00 30 46 DA 4A AA 00
  vcan0  0CF00CFE  [08]  50 46 D0 3D 00 00 00 00
  vcan0  1CFEABFE  [08]  EE A6 E4 70 00 00 00 00
  vcan0  1CFEC5FE  [08]  64 7F 00 00 00 00 00 00
  vcan0  1CFEC7FE  [08]  C8 41 0E 92 9E 54 00 00
  vcan0  18F005FE  [08]  3B 98 B7 05 AA 00 7C 00
  vcan0  0CF002FE  [08]  46 78 0B CA 09 28 A1 6E
  vcan0  18FE69FE  [08]  20 EC A0 CA C0 72 20 D3
  vcan0  18FEA4FE  [08]  40 C3 20 9A 80 AD 60 CB
  vcan0  18FEEEFE  [08]  80 76 00 DD E0 45 D5 32
  vcan0  18FE07FE  [08]  40 63 C0 83 00 00 00 00
  vcan0  18F00BFE  [08]  00 6B C4 0C 1D 09 00 00
  vcan0  18F000FE  [08]  31 32 5D CB 17 A6 A7 E8
  vcan0  18FDE4FE  [08]  1D 00 00 00 00 00 00 00
  vcan0  18FDD2FE  [08]  D8 5F 00 00 00 00 00 00
  vcan0  18FDE3FE  [08]  52 00 00 00 00 00 00 00
  vcan0  1CFEA9FE  [08]  00 C8 D0 52 30 43 71 40
  vcan0  1CFE92FE  [08]  45 80 AF 70 70 BC 9E 67
  vcan0  1CFEB1FE  [08]  28 3E D2 40 60 8A 88 C8
  vcan0  0CF00AFE  [08]  40 F1 1C E3 64 8C 00 00
  vcan0  18FE6AFE  [07]  BB 96 AC 2D 9B A5 17
  vcan0  18FDC1FE  [08]  00 CB B3 00 39 D1 00 00
  vcan0  18FEDBFE  [08]  00 85 00 F7 00 0B 00 6E
  vcan0  18FEEFFE  [08]  BB F0 0C CE 80 F3 B7 07
  vcan0  1CFE93FE  [08]  08 6F 06 00 00 00 00 00
  vcan0  18FDD5FE  [08]  00 2B E0 8A 70 DF 21 19
  vcan0  1CFEBEFE  [08]  94 D4 98 65 05 39 00 00
  vcan0  18FEDFFE  [08]  C3 D0 70 92 F4 62 4D 91
  vcan0  0CF003FE  [08]  E9 BE 88 3C E8 4A E1 14
  vcan0  0CF004FE  [08]  02 DE 96 70 53 37 0A D5
  vcan0  18FE54FE  [08]  3F F2 34 F2 56 ED 3C BF
  vcan0  18FEE3FE  [39]  A0 6F B9 90 09 13 78 76 49 40 45 7C 70 BA A9 A8 11 00 B9 34 78 C8 88 FA 0A C4 D3 9B 68 4D 04 29 24 14 27 54 53 FC 9C
  vcan0  18F001FE  [08]  CC 8C A3 5D C8 2D 5F 20
  vcan0  18FE94FE  [08]  EC 5A 2E 00 00 00 00 00
  vcan0  1CFDC9FE  [08]  D2 D7 00 00 00 00 00 00
  vcan0  18E0FEFE  [08]  DC 20 5F 48 5C 7C A8 71
  vcan0  18D0FEFE  [08]  98 00 00 00 00 00 00 00
  vcan0  18FEF1FE  [08]  11 00 6F 5B 87 C6 95 BD
  vcan0  18FEEDFE  [08]  C7 A6 EF 00 00 00 00 00
  vcan0  18FE67FE  [08]  AA DB 00 00 00 00 00 00
  vcan0  1CFEBCFE  [16]  A8 5F F5 02 28 67 32 31 48 F4 D5 2F 93 40 4A 5F
  vcan0  18FDE1FE  [08]  68 00 00 00 00 00 00 00
  vcan0  18FE50FE  [08]  AB 66 00 00 00 00 00 00
  vcan0  18FCF5FE  [08]  E0 AE 40 86 DE 00 00 00
  vcan0  18FCF4FE  [08]  A0 A8 80 EF E0 6C 16 00
  vcan0  18FCF7FE  [08]  C0 AC 20 6C 25 00 00 00
  vcan0  18FCF6FE  [08]  60 CB 60 B1 AA 00 00 00
  vcan0  18FD14FE  [08]  0A 10 27 F8 20 00 00 00
  vcan0  18FD15FE  [08]  19 DC 05 B8 56 00 00 00
  vcan0  18FD61FE  [08]  74 68 CB CF 2A 99 00 00
  vcan0  18FD64FE  [08]  16 FE 80 96 5A 96 00 00
  vcan0  08A1FEFE  [09]  10 91 41 20 E3 98 D5 48 84
  vcan0  18FEFAFE  [08]  5F 14 30 26 00 00 00 00
  vcan0  18FEFEFE  [08]  7D 00 00 00 00 00 00 00
  vcan0  18FD20FE  [08]  60 D2 E0 CF E2 54 44 54
  vcan0  18FD48FE  [08]  D0 07 92 04 0A 00 00 00
  vcan0  18FD49FE  [08]  C2 06 5C 03 00 00 00 00
  vcan0  18F021FE  [08]  BA C8 48 5D 86 BB 38 00
  vcan0  10FD52FE  [08]  03 AD 07 00 00 00 00 00
  vcan0  18F00EFE  [08]  14 91 64 DC 98 0F 02 11
  vcan0  18FDB4FE  [08]  60 5D 80 90 10 0D 00 00
  vcan0  18FD66FE  [08]  94 8A 5C 20 56 00 AF 00
  vcan0  18FED5FE  [03]  92 20 41
  vcan0  18FDE0FE  [08]  3E CF A4 1F 00 00 00 00
  vcan0  14FD53FE  [08]  C0 04 A0 90 C0 56 00 00
  vcan0  08F02DFE  [07]  C4 3B A8 16 64 C8 FA
  vcan0  18FCEAFE  [08]  80 ED 00 00 00 00 00 00
  vcan0  0CF029FE  [08]  00 80 41 00 80 06 7D 34
  vcan0  18FD09FE  [08]  50 82 86 E2 F8 B6 2F 17
  vcan0  18FCFFFE  [08]  A0 48 E0 48 00 00 00 00
  vcan0  1CFCFAFE  [08]  70 49 40 1F 00 00 00 00
  vcan0  1CFCFEFE  [08]  C0 6E 0E 2C 4D 9B 00 00
  vcan0  18FCF8FE  [08]  70 DF 60 B8 30 F2 00 00
  vcan0  18FD1BFE  [08]  81 FA 50 F5 20 67 14 00
  vcan0  18FCF9FE  [08]  40 CE A0 0F F0 0A 00 00
  vcan0  18FD1CFE  [08]  66 E1 C0 76 B0 E5 07 00
  vcan0  18FD6EFE  [08]  50 82 4C B3 14 96 30 00
  vcan0  1CFEB7FE  [10]  48 27 10 5E A2 C8 98 F3 28 87
  vcan0  18FEDCFE  [08]  8C 96 02 AC C8 C0 F3 A5
  vcan0  18FE6DFE  [08]  FA F2 16 0C A8 00 00 00
  vcan0  08FE6EFE  [08]  00 A9 00 BE 00 BB 00 C3
  vcan0  1CFEB8FE  [22]  B4 A9 DE CF 4E F5 89 D3 6E 03 E0 6D B2 A0 49 96 D0 3F 0C 10 00 34
  vcan0  18FE5DFE  [08]  10 24 48 A8 13 00 00 00
  vcan0  18FE63FE  [08]  20 58 27 2A 29 03 11 00
  vcan0  18FE65FE  [08]  E0 4F 00 00 00 00 00 00
  vcan0  18FEC8FE  [08]  00 00 C4 6F B8 DD AA 00
  vcan0  18FEF3FE  [08]  0B 00 00 00 04 00 00 00
  vcan0  18FEE7FE  [08]  1C 2C 8B 63 14 6B 59 95
  vcan0  18FEE8FE  [08]  00 9B 00 E6 00 9A 78 B9
  vcan0  18FEE0FE  [08]  E8 BE 81 ED 98 F3 11 DD
  vcan0  1CFEB6FE  [08]  00 0C 60 81 7B 02 00 00
  vcan0  1CFEB0FE  [20]  64 7F C0 15 04 1C 6B 9C AC 35 B2 D4 28 60 6C 60 0C D5 44 B1
  vcan0  1CFEB4FE  [16]  9C 95 89 21 94 72 35 46 64 91 A2 17 F0 D6 C4 6E
  vcan0  1CFEBBFE  [16]  3C 46 B5 68 FC ED D7 1A 04 57 21 B0 20 2C 3B 64
  vcan0  1CFEBAFE  [12]  18 1A 97 07 00 8C 17 17 F8 3A 5D DB
  vcan0  18D5FEFE  [08]  8C 6B 5D 8B F0 73 D8 60
  vcan0  18FE4BFE  [08]  3F 73 00 00 00 00 00 00
  vcan0  0C01FEFE  [08]  7D 93 EF 27 24 E3 D8 BC
  vcan0  18FEDDFE  [08]  EE 67 11 C0 00 00 00 00
  vcan0  1CFE4DFE  [08]  9C E5 00 7E 00 00 00 00
  vcan0  18FDE2FE  [08]  95 82 07 4E 76 DC 00 00
  vcan0  18FE8FFE  [08]  74 66 00 00 00 00 00 00
  vcan0  18FEDAFE  [08]  33 82 1D 42 00 00 00 00
  vcan0  18FEC0FE  [08]  EF C1 07 1A 6A B6 89 BA
  vcan0  1CFE8EFE  [08]  9B 4D BC 00 00 00 00 00
  vcan0  18FE53FE  [08]  65 A3 2B C8 36 E4 2E BA
  vcan0  18FEFBFE  [08]  96 20 02 00 00 00 00 00
  vcan0  1CDEFEFE  [08]  0A 7A 0F 92 00 00 00 00
  vcan0  18FEE1FE  [19]  13 82 90 D4 48 A8 D7 E1 A8 21 CC 40 30 B1 B0 4C 4B 6D B4
  vcan0  1CFE95FE  [08]  0C BD 2E 09 00 00 00 00
  vcan0  18FEF0FE  [08]  F7 18 D0 A0 27 27 2B 3C
  vcan0  18FDCDFE  [08]  1B C0 14 50 48 88 E0 00
  vcan0  0CFDCCFE  [08]  DE B0 AC B9 EE 00 00 00
  vcan0  0CFE75FE  [08]  58 25 56 00 00 38 86 00
  vcan0  0CFE71FE  [08]  66 EE C8 19 97 ED D6 00
  vcan0  1CFEB9FE  [22]  4C EF AA 32 3E 54 75 86 F2 1F 09 DF 32 B7 27 98 5E F6 28 28 00 94
  vcan0  0CFE74FE  [08]  D6 C4 04 00 00 00 00 00
  vcan0  0CFE73FE  [08]  F2 08 00 00 00 00 00 00
  vcan0  1CFEB3FE  [08]  CA 37 1D 6F 24 63 62 02
  vcan0  18FEF2FE  [08]  18 A6 00 54 00 D0 3E 28
  vcan0  18FEE9FE  [08]  74 54 34 F3 C8 EA D7 C7
  vcan0  1CFDD1FE  [08]  0D CA 00 00 00 00 00 00
  vcan0  18FEBDFE  [08]  91 0A 18 E4 DA 38 32 00
  vcan0  0CF00CFE  [08]  58 98 48 D3 00 00 00 00
  vcan0  1CFEABFE  [08]  AA E3 21 E6 00 00 00 00
  vcan0  1CFEC5FE  [08]  A7 6B 00 00 00 00 00 00
  vcan0  1CFEC7FE  [08]  02 D7 3A 9F EF C1 00 00
  vcan0  18F005FE  [08]  15 48 71 54 E5 00 DB 00
  vcan0  0CF002FE  [08]  CC 68 66 55 1B B0 44 95
  vcan0  18FE69FE  [08]  E0 0C 20 E3 40 B4 E0 D9
  vcan0  18FEA4FE  [08]  00 EE C0 65 80 91 40 91
  vcan0  18FEEEFE  [08]  C0 E9 A0 D6 00 F7 8B E3
  vcan0  18FE07FE  [08]  60 6A 00 F8 00 00 00 00
  vcan0  18F00BFE  [08]  00 C7 BD 3F 96 02 00 00
  vcan0  18F000FE  [08]  15 99 94 D8 A0 20 1E 9C
  vcan0  18FDE4FE  [08]  38 00 00 00 00 00 00 00
  vcan0  18FDD2FE  [08]  D7 43 BB 00 00 00 00 00
  vcan0  18FDE3FE  [08]  9D 00 00 00 00 00 00 00
  vcan0  1CFEA9FE  [08]  20 4E D0 6B 50 2D 9A 00
  vcan0  1CFE92FE  [08]  78 80 CE 93 C0 DF 1A 6C
  vcan0  1CFEB1FE  [08]  88 AC BC 23 04 B3 1F 65
  vcan0  0CF00AFE  [08]  E4 75 1C 4D E0 9C 00 00
  vcan0  18FE6AFE  [07]  A7 4A C0 4B 0A 71 0E
  vcan0  18FDC1FE  [08]  00 68 59 00 B7 6A 00 00
  vcan0  18FEDBFE  [08]  00 00 00 6F 00 82 00 38
  vcan0  18FEEFFE  [08]  6A 3C 91 6E 80 5D 14 16
  vcan0  1CFE93FE  [08]  92 23 0F 00 00 00 00 00
  vcan0  18FDD5FE  [08]  80 31 C0 A5 90 C9 20 28
  vcan0  1CFEBEFE  [08]  64 1C C0 72 00 F3 00 00
  vcan0  18FEDFFE  [08]  56 50 77 11 F7 28 96 C2
  vcan0  0CF003FE  [08]  5D 9D CA 37 7D 21 9B 2E
  vcan0  0CF004FE  [08]  03 82 EB 78 88 EF 01 1B
  vcan0  18FE54FE  [08]  F2 64 E9 6D 13 B9 62 9E
  vcan0  18FEE3FE  [39]  D0 D9 9A A0 D2 9B E0 5B 3E 80 C9 8B 28 BE E4 20 34 00 96 E0 F1 D0 73 00 AA E6 79 44 38 63 38 C7 EF DA DE DF BE 32 AA
  vcan0  18F001FE  [08]  7F 16 B9 F2 0C 44 7F 74
  vcan0  18FE94FE  [08]  90 47 98 00 00 00 00 00
  vcan0  1CFDC9FE  [08]  93 24 00 00 00 00 00 00
  vcan0  18E0FEFE  [08]  14 00 EA C0 48 30 9D 09
  vcan0  18D0FEFE  [08]  32 00 00 00 00 00 00 00
  vcan0  18FEF1FE  [08]  28 00 68 AA 15 6F 04 B9
  vcan0  18FEEDFE  [08]  92 CD 4F 00 00 00 00 00
  vcan0  18FE67FE  [08]  7A DD 00 00 00 00 00 00
  vcan0  1CFEBCFE  [16]  18 17 8F F8 D0 AA 7D F8 D8 8E A2 1C 21 CA 41 58
  vcan0  18FDE1FE  [08]  34 00 00 00 00 00 00 00
  vcan0  18FE50FE  [08]  A9 52 00 00 00 00 00 00
  vcan0  18FCF5FE  [08]  80 2C 00 19 C8 00 00 00
  vcan0  18FCF4FE  [08]  40 C3 20 9E 40 2E 7A 00
  vcan0  18FCF7FE  [08]  C0 B1 20 34 ED 00 00 00
  vcan0  18FCF6FE  [08]  00 C1 60 1D A0 00 00 00
  vcan0  18FD14FE  [08]  38 3C 6E 08 A7 00 00 00
  vcan0  18FD15FE  [08]  0D 84 3F 08 3E 00 00 00
  vcan0  18FD61FE  [08]  64 57 47 16 E0 AB 00 00
  vcan0  18FD64FE  [08]  43 62 5A 27 F4 6C 00 00
  vcan0  08A1FEFE  [09]  85 BD 77 32 E5 73 72 17 7F
  vcan0  18FEFAFE  [08]  CF E0 E9 3D 00 00 00 00
  vcan0  18FEFEFE  [08]  30 00 00 00 00 00 00 00
  vcan0  18FD20FE  [08]  C0 33 40 43 94 6B 9A 0D
  vcan0  18FD48FE  [08]  66 03 18 01 05 00 00 00
  vcan0  18FD49FE  [08]  CA 03 52 03 0C 00 00 00
  vcan0  18F021FE  [08]  FE E8 1C 30 A4 30 04 00
  vcan0  10FD52FE  [08]  00 AB F7 00 00 00 00 00
  vcan0  18F00EFE  [08]  88 F9 FE E3 51 09 0A 1A
  vcan0  18FDB4FE  [08]  E0 1B A0 86 03 12 00 00
  vcan0  18FD66FE  [08]  10 E8 78 00 46 20 30 00
  vcan0  18FED5FE  [03]  7A 25 92
  vcan0  18FDE0FE  [08]  19 61 54 A1 00 00 00 00
  vcan0  14FD53FE  [08]  00 82 40 EB 20 80 00 00
  vcan0  08F02DFE  [07]  48 BC 98 85 5C 2B 56
  vcan0  18FCEAFE  [08]  60 D1 00 00 00 00 00 00
  vcan0  0CF029FE  [08]  00 00 BE 00 00 81 B1 F0
  vcan0  18FD09FE  [08]  F0 0A EF 38 F0 B5 DC 2C
  vcan0  18FCFFFE  [08]  40 A7 A0 86 00 00 00 00
  vcan0  1CFCFAFE  [08]  F0 6E 50 2D 00 00 00 00
  vcan0  1CFCFEFE  [08]  40 4C 4C 83 9D CD 00 00
  vcan0  18FCF8FE  [08]  00 AF B0 4F 00 FA 00 00
  vcan0  18FD1BFE  [08]  A8 96 70 49 E0 2E 0C 00
  vcan0  18FCF9FE  [08]  C0 8F 10 A4 40 38 00 00
  vcan0  18FD1CFE  [08]  AD A2 00 19 60 09 13 00
  vcan0  18FD6EFE  [08]  88 40 C4 6D 23 7B F1 00
  vcan0  1CFEB7FE  [10]  68 F5 68 95 B4 D2 60 6C B6 22
  vcan0  18FEDCFE  [08]  7E FA B7 2E D4 D2 C0 74
  vcan0  18FE6DFE  [08]  CD AD F7 0B 1B 00 00 00
  vcan0  08FE6EFE  [08]  00 DE 00 48 00 AE 00 37
  vcan0  1CFEB8FE  [22]  D0 73 94 F9 98 FB 5D DC 0C 60 91 9E B8 7B 8A 82 14 FD 0E 8B 00 C4
  vcan0  18FE5DFE  [08]  10 0F 90 EF F7 00 00 00
  vcan0  18FE63FE  [08]  C0 90 84 0B 09 A6 59 00
  vcan0  18FE65FE  [08]  A0 99 00 00 00 00 00 00
  vcan0  18FEC8FE  [08]  05 00 F2 2A E2 71 32 00
  vcan0  18FEF3FE  [08]  0E 00 00 00 19 00 00 00
  vcan0  18FEE7FE  [08]  D4 44 2D 0A B8 AA 99 B2
  vcan0  18FEE8FE  [08]  80 CC 00 22 80 31 D0 57
  vcan0  18FEE0FE  [08]  B8 6C 08 79 68 C9 CA 7D
  vcan0  1CFEB6FE  [08]  00 AB B8 D1 E3 FA 00 00
  vcan0  1CFEB0FE  [20]  6C B5 A6 B9 04 8B 87 DE EC AF 11 A2 F4 86 29 6F F8 F7 49 B1
  vcan0  1CFEB4FE  [16]  AC 7F DE 45 B8 1E B3 1B EC A9 D3 C2 20 33 A7 5F
  vcan0  1CFEBBFE  [16]  F0 5D DD A6 F0 04 C2 34 D4 4B 03 19 C4 93 5E 5D
  vcan0  1CFEBAFE  [12]  F8 23 8E 62 08 31 EA 41 D8 85 AD 0C
  vcan0  18D5FEFE  [08]  30 96 A4 75 10 6E 54 1D
  vcan0  18FE4BFE  [08]  E7 67 00 00 00 00 00 00
  vcan0  0C01FEFE  [08]  39 98 B4 64 30 0B FC 31
  vcan0  18FEDDFE  [08]  D2 76 40 40 00 00 00 00
  vcan0  1CFE4DFE  [08]  80 0C 00 4A 00 00 00 00
  vcan0  18FDE2FE  [08]  ED A2 78 AA 56 92 00 00
  vcan0  18FE8FFE  [08]  16 73 00 00 00 00 00 00
  vcan0  18FEDAFE  [08]  C2 36 83 48 00 00 00 00
  vcan0  18FEC0FE  [08]  33 4B 8D 1B 80 1D E6 29
  vcan0  1CFE8EFE  [08]  2F 82 DC 00 00 00 00 00
  vcan0  18FE53FE  [08]  F2 A9 C4 48 23 9C 0B 5D
  vcan0  18FEFBFE  [08]  82 98 02 00 00 00 00 00
  vcan0  1CDEFEFE  [08]  07 73 0B E2 00 00 00 00
  vcan0  18FEE1FE  [19]  7B 0E 80 26 B6 48 56 B3 D8 A4 2E 98 EB BE 40 DC 0B B4 61
  vcan0  1CFE95FE  [08]  F9 F1 C4 A7 00 00 00 00
  vcan0  18FEF0FE  [08]  2A 28 27 28 24 21 A4 14
  vcan0  18FDCDFE  [08]  68 70 61 6E AA 7C E0 00
  vcan0  0CFDCCFE  [08]  60 33 32 72 2D 00 00 00
  vcan0  0CFE75FE  [08]  B4 E6 D1 00 00 4A 5B 00
  vcan0  0CFE71FE  [08]  00 3C 96 C8 87 05 E3 00
  vcan0  1CFEB9FE  [22]  0E E8 8C B3 02 5A A5 B4 42 41 33 01 A4 15 59 AC 26 A0 B5 D0 00 DC
  vcan0  0CFE74FE  [08]  DC 00 00 00 00 00 00 00
  vcan0  0CFE73FE  [08]  50 C8 00 00 00 00 00 00
  vcan0  1CFEB3FE  [08]  46 2F F3 E7 68 D8 82 00
  vcan0  18FEF2FE  [08]  84 94 00 52 00 8C 00 F0
  vcan0  18FEE9FE  [08]  F2 AF CD 62 08 1E 68 0C
  vcan0  1CFDD1FE  [08]  08 D2 00 00 00 00 00 00
  vcan0  18FEBDFE  [08]  C3 07 A8 2C 20 12 DC 00
  vcan0  0CF00CFE  [08]  30 75 B0 01 00 00 00 00
  vcan0  1CFEABFE  [08]  81 2B 29 37 00 00 00 00
  vcan0  1CFEC5FE  [08]  05 00 00 00 00 00 00 00
  vcan0  1CFEC7FE  [08]  64 ED 0C 5E 82 CD 00 00
  vcan0  18F005FE  [08]  7A F0 D2 13 07 00 89 00
  vcan0  0CF002FE  [08]  44 18 ED BB 22 F0 69 16
  vcan0  18FE69FE  [08]  60 37 C0 A5 00 DE 80 94
  vcan0  18FEA4FE  [08]  A0 91 80 63 00 14 C0 D8
  vcan0  18FEEEFE  [08]  E0 A1 E0 E7 20 61 B3 87
  vcan0  18FE07FE  [08]  80 A4 80 5C 00 00 00 00
  vcan0  18F00BFE  [08]  00 81 A1 36 6C 07 00 00
  vcan0  18F000FE  [08]  6E 6A F7 0D 47 09 11 5D
  vcan0  18FDE4FE  [08]  F3 00 00 00 00 00 00 00
  vcan0  18FDD2FE  [08]  22 2A EB 00 00 00 00 00
  vcan0  18FDE3FE  [08]  92 00 00 00 00 00 00 00
  vcan0  1CFEA9FE  [08]  F0 D2 00 AF D0 07 64 40
  vcan0  1CFE92FE  [08]  CE 80 21 37 94 5C 9A AE
  vcan0  1CFEB1FE  [08]  50 2A 75 1C 8C 8D 52 89
  vcan0  0CF00AFE  [08]  24 0E 08 8E 08 66 00 00
  vcan0  18FE6AFE  [07]  ED 75 C4 CA 64 5F 11
  vcan0  18FDC1FE  [08]  00 84 58 00 6D 59 00 00
  vcan0  18FEDBFE  [08]  00 44 00 40 00 31 00 85
  vcan0  18FEEFFE  [08]  29 DC 34 C3 80 D7 85 B6
  vcan0  1CFE93FE  [08]  68 70 02 00 00 00 00 00
  vcan0  18FDD5FE  [08]  A0 D3 E0 D6 10 40 02 C8
  vcan0  1CFEBEFE  [08]  50 D8 E0 84 06 DE 00 00
  vcan0  18FEDFFE  [08]  8F A8 FA 6D D6 F3 F2 E3
  vcan0  0CF003FE  [08]  37 61 B7 FA F5 C3 DE 39
  vcan0  0CF004FE  [08]  0E 6C 6B E0 C5 9B 0F EC
  vcan0  18FE54FE  [08]  60 93 1F C4 EB 28 4C 61
  vcan0  18FEE3FE  [39]  48 5A 6A 18 79 96 D8 32 C6 68 0B 97 D0 A7 54 38 88 00 00 E2 63 D8 6F 1E A0 34 55 1B 68 18 54 EC 35 26 F6 58 67 D2 B4
  vcan0  18F001FE  [08]  BA FA 74 14 93 4B 07 1C
  vcan0  18FE94FE  [08]  7F 43 FA 00 00 00 00 00
  vcan0  1CFDC9FE  [08]  C2 45 00 00 00 00 00 00
  vcan0  18E0FEFE  [08]  00 C0 0C 13 E4 EB 61 01
  vcan0  18D0FEFE  [08]  07 00 00 00 00 00 00 00
  vcan0  18FEF1FE  [08]  90 00 97 72 D2 1A 97 36
  vcan0  18FEEDFE  [08]  B1 3E 45 00 00 00 00 00
  vcan0  18FE67FE  [08]  EC A2 00 00 00 00 00 00
  vcan0  1CFEBCFE  [16]  10 FD AF FA B8 0D B5 81 C8 2D CE 19 FE 35 14 88
  vcan0  18FDE1FE  [08]  5C 00 00 00 00 00 00 00
  vcan0  18FE50FE  [08]  E2 EA 00 00 00 00 00 00
  vcan0  18FCF5FE  [08]  80 CA E0 F6 25 00 00 00
  vcan0  18FCF4FE  [08]  40 F1 60 0E A0 8E 89 00
  vcan0  18FCF7FE  [08]  40 32 C0 C0 AA 00 00 00
  vcan0  18FCF6FE  [08]  20 DF E0 63 AC 00 00 00
  vcan0  18FD14FE  [08]  23 F0 AF 0C 35 00 00 00
  vcan0  18FD15FE  [08]  33 EC 4F 2C E7 00 00 00
  vcan0  18FD61FE  [08]  4C EB B4 81 04 F6 00 00
  vcan0  18FD64FE  [08]  A6 F1 DD 8C 83 1B 00 00
  vcan0  08A1FEFE  [09]  50 7F 58 22 1B 16 01 B0 FF
  vcan0  18FEFAFE  [08]  14 64 EB 34 00 00 00 00
  vcan0  18FEFEFE  [08]  67 00 00 00 00 00 00 00
  vcan0  18FD20FE  [08]  E0 BC 40 C3 64 A0 CD 45
  vcan0  18FD48FE  [08]  36 01 64 05 0C 00 00 00
  vcan0  18FD49FE  [08]  DE 03 B8 01 0F 00 00 00
  vcan0  18F021FE  [08]  74 72 FE 31 30 64 84 00
  vcan0  10FD52FE  [08]  01 56 AA 00 00 00 00 00
  vcan0  18F00EFE  [08]  A4 A1 97 EB 85 08 0C 0C
  vcan0  18FDB4FE  [08]  C0 E1 60 CA 1F 0B 00 00
  vcan0  18FD66FE  [08]  53 40 5A 00 00 80 C0 00
  vcan0  18FED5FE  [03]  6A D0 33
  vcan0  18FDE0FE  [08]  3E B4 48 A3 00 00 00 00
  vcan0  14FD53FE  [08]  A0 85 80 D4 60 58 00 00
  vcan0  08F02DFE  [07]  E4 A2 00 FA 08 6B 26
  vcan0  18FCEAFE  [08]  10 27 00 00 00 00 00 00
  vcan0  0CF029FE  [08]  00 80 3E 00 00 96 EE 2C
  vcan0  18FD09FE  [08]  70 53 06 A4 C0 D2 B0 52
  vcan0  18FCFFFE  [08]  40 A8 60 E3 00 00 00 00
  vcan0  1CFCFAFE  [08]  D0 39 10 40 00 00 00 00
  vcan0  1CFCFEFE  [08]  00 C9 D0 92 F5 19 00 00
  vcan0  18FCF8FE  [08]  00 64 90 7E E0 79 00 00
  vcan0  18FD1BFE  [08]  8D FA E0 60 90 C9 1B 00
  vcan0  18FCF9FE  [08]  80 25 60 6D 90 E2 00 00
  vcan0  18FD1CFE  [08]  06 25 A0 F0 20 80 0F 00
  vcan0  18FD6EFE  [08]  B4 0A 3C 5A 5F 8A 0D 00
  vcan0  1CFEB7FE  [10]  88 CF 78 A6 E1 4B 88 65 2C 59
  vcan0  18FEDCFE  [08]  34 BE 21 35 7C D8 FC 94
  vcan0  18FE6DFE  [08]  25 65 D9 0C E5 00 00 00
  vcan0  08FE6EFE  [08]  00 51 00 42 00 7C 00 2F
  vcan0  1CFEB8FE  [22]  14 9B C6 5D 52 E0 C2 C0 EA 42 9E 18 82 5A 39 F8 90 DE B7 0E 00 DC
  vcan0  18FE5DFE  [08]  20 76 F0 D7 5D 00 00 00
  vcan0  18FE63FE  [08]  E0 50 55 D3 22 34 F7 00
  vcan0  18FE65FE  [08]  A0 D1 00 00 00 00 00 00
  vcan0  18FEC8FE  [08]  05 00 01 40 2F B8 8C 00
  vcan0  18FEF3FE  [08]  13 00 00 00 1E 00 00 00
  vcan0  18FEE7FE  [08]  A0 96 85 A7 D8 C9 39 F6
  vcan0  18FEE8FE  [08]  00 54 00 85 00 54 00 45
  vcan0  18FEE0FE  [08]  80 A0 68 34 00 FD A6 4A
  vcan0  1CFEB6FE  [08]  00 50 A8 0E 4C DA 00 00
  vcan0  1CFEB0FE  [20]  28 AF 21 2A 20 23 29 4D 98 8A 15 DB 1C F2 56 13 34 A2 D4 4F
  vcan0  1CFEB4FE  [16]  B8 CA D6 A5 F0 49 59 08 D8 69 D5 83 DC 23 0E D3
  vcan0  1CFEBBFE  [16]  40 86 07 0F 40 48 F1 F3 A0 E9 6E 34 58 A6 6A 91
  vcan0  1CFEBAFE  [12]  A8 93 1C 36 C0 0A 8D 2E A8 90 B6 CF
  vcan0  18D5FEFE  [08]  5C 0B CF 7F C8 54 00 EB
  vcan0  18FE4BFE  [08]  8B 69 00 00 00 00 00 00
  vcan0  0C01FEFE  [08]  C9 AF 18 94 08 C1 14 CE
  vcan0  18FEDDFE  [08]  2C D7 9D C0 00 00 00 00
  vcan0  1CFE4DFE  [08]  48 21 00 C6 00 00 00 00
  vcan0  18FDE2FE  [08]  CB 91 43 AC F8 43 00 00
  vcan0  18FE8FFE  [08]  4C F0 00 00 00 00 00 00
  vcan0  18FEDAFE  [08]  EB 79 1E D6 00 00 00 00
  vcan0  18FEC0FE  [08]  81 28 50 3A 38 5D A3 C0
  vcan0  1CFE8EFE  [08]  11 B9 8F 00 00 00 00 00
  vcan0  18FE53FE  [08]  82 76 24 20 36 CA D3 1E
  vcan0  18FEFBFE  [08]  3C EC 01 00 00 00 00 00
  vcan0  1CDEFEFE  [08]  00 09 0C 77 00 00 00 00
  vcan0  18FEE1FE  [19]  D1 27 98 44 FA 28 A3 60 18 C0 90 D8 46 85 E0 D4 4D D5 73
  vcan0  1CFE95FE  [08]  2B D9 7B 39 00 00 00 00
  vcan0  18FEF0FE  [08]  7C 80 40 58 3E 27 8C 0A
  vcan0  18FDCDFE  [08]  8A E0 05 6B 48 B0 80 00
  vcan0  0CFDCCFE  [08]  AE 17 9B 30 A2 00 00 00
  vcan0  0CFE75FE  [08]  7E 22 51 00 00 BC 9D 00
  vcan0  0CFE71FE  [08]  A2 53 18 88 7F 3E 98 00
  vcan0  1CFEB9FE  [22]  5E 2C 20 D2 8E A2 23 39 14 6A 6C 1D F4 C9 49 1F 72 89 ED 6B 00 16
  vcan0  0CFE74FE  [08]  F4 F6 02 00 00 00 00 00
  vcan0  0CFE73FE  [08]  28 05 00 00 00 00 00 00
  vcan0  1CFEB3FE  [08]  B4 CC E3 D1 D4 99 58 02
  vcan0  18FEF2FE  [08]  90 E2 00 AE 00 42 52 CF
  vcan0  18FEE9FE  [08]  94 44 4D B8 82 79 25 7F
  vcan0  1CFDD1FE  [08]  06 22 00 00 00 00 00 00
  vcan0  18FEBDFE  [08]  E1 09 B0 F7 5C 89 69 00
  vcan0  0CF00CFE  [08]  50 46 A0 6E 00 00 00 00
  vcan0  1CFEABFE  [08]  08 7C 76 02 00 00 00 00
  vcan0  1CFEC5FE  [08]  6E 87 00 00 00 00 00 00
  vcan0  1CFEC7FE  [08]  84 98 15 CF C5 97 00 00
  vcan0  18F005FE  [08]  0E 70 94 E4 5E 00 57 00
  vcan0  0CF002FE  [08]  35 70 28 5F 21 E8 1A 22
  vcan0  18FE69FE  [08]  E0 04 E0 37 60 1A 80 29
  vcan0  18FEA4FE  [08]  C0 37 60 7E 00 0E 00 4C
  vcan0  18FEEEFE  [08]  80 5C A0 C7 00 9E 92 05
  vcan0  18FE07FE  [08]  60 A9 A0 0E 00 00 00 00
  vcan0  18F00BFE  [08]  00 BB 7B 21 F0 0A 00 00
  vcan0  18F000FE  [08]  69 80 10 2B C2 66 C0 02
  vcan0  18FDE4FE  [08]  4C 00 00 00 00 00 00 00
  vcan0  18FDD2FE  [08]  1E 47 43 00 00 00 00 00
  vcan0  18FDE3FE  [08]  55 00 00 00 00 00 00 00
  vcan0  1CFEA9FE  [08]  D0 39 30 75 80 D4 32 C0
  vcan0  1CFE92FE  [08]  C5 80 39 39 48 0D E0 EB
  vcan0  1CFEB1FE  [08]  F0 E4 65 D8 2C F0 05 1F
  vcan0  0CF00AFE  [08]  4C C2 34 A3 E4 E3 00 00
  vcan0  18FE6AFE  [07]  91 B5 D8 AC 45 56 0D
  vcan0  18FDC1FE  [08]  00 77 45 00 39 3E 00 00
  vcan0  18FEDBFE  [08]  00 F0 00 05 00 F1 00 CF
  vcan0  18FEEFFE  [08]  2C F0 20 65 80 0D 9B 37
  vcan0  1CFE93FE  [08]  BA 39 0A 00 00 00 00 00
  vcan0  18FDD5FE  [08]  80 88 A0 0C 30 8E 30 5C
  vcan0  1CFEBEFE  [08]  38 22 90 9F 03 0B 00 00
  vcan0  18FEDFFE  [08]  9B 10 C0 82 DD 64 A5 D2
  vcan0  0CF003FE  [08]  6B 84 6D 89 11 82 98 57
  vcan0  0CF004FE  [08]  04 F7 90 80 E6 BB 04 F4
  vcan0  18FE54FE  [08]  78 77 67 60 29 C0 92 A2
  vcan0  18FEE3FE  [39]  28 6E 74 38 9F AD 10 E4 E2 88 02 04 A8 11 F5 F0 B6 00 BE 7C 4C A8 D6 DC 62 F6 D5 7A 28 13 62 C0 6D CA 5D 8C 75 C0 7E
  vcan0  18F001FE  [08]  7D 41 35 2F 84 E4 C1 28
  vcan0  18FE94FE  [08]  4C B8 19 00 00 00 00 00
  vcan0  1CFDC9FE  [08]  4B 15 00 00 00 00 00 00
  vcan0  18E0FEFE  [08]  D4 C0 6F 7F 14 54 4F BA
  vcan0  18D0FEFE  [08]  E8 00 00 00 00 00 00 00
  vcan0  18FEF1FE  [08]  85 00 2E B7 AA 1D 57 D9
  vcan0  18FEEDFE  [08]  C2 66 EF 00 00 00 00 00
  vcan0  18FE67FE  [08]  78 3C 00 00 00 00 00 00
  vcan0  1CFEBCFE  [16]  F0 55 8D CF E0 4C AD 8F 50 CA 63 77 F2 64 D5 A7
  vcan0  18FDE1FE  [08]  1D 00 00 00 00 00 00 00
  vcan0  18FE50FE  [08]  73 0B 00 00 00 00 00 00
  vcan0  18FCF5FE  [08]  E0 D8 00 25 41 00 00 00
  vcan0  18FCF4FE  [08]  E0 91 A0 A1 C0 A5 69 00
  vcan0  18FCF7FE  [08]  20 F4 40 4C 5C 00 00 00
  vcan0  18FCF6FE  [08]  E0 7F C0 93 CF 00 00 00
  vcan0  18FD14FE  [08]  33 A4 0B 44 A7 00 00 00
  vcan0  18FD15FE  [08]  0B 04 3D 54 79 00 00 00
  vcan0  18FD61FE  [08]  80 88 EF C5 7E 54 00 00
  vcan0  18FD64FE  [08]  59 49 D4 F7 24 CA 00 00
  vcan0  08A1FEFE  [09]  36 97 8C FD 87 B3 EA 26 53
  vcan0  18FEFAFE  [08]  EF 87 E2 0B 00 00 00 00
  vcan0  18FEFEFE  [08]  F9 00 00 00 00 00 00 00
  vcan0  18FD20FE  [08]  E0 F0 60 3F B8 3D A7 05
  vcan0  18FD48FE  [08]  8A 02 EA 06 07 00 00 00
  vcan0  18FD49FE  [08]  E6 00 0A 00 0E 00 00 00
  vcan0  18F021FE  [08]  D6 56 E4 3D CC B1 D0 00
  vcan0  10FD52FE  [08]  00 3A 69 00 00 00 00 00
  vcan0  18F00EFE  [08]  C0 44 99 53 D8 36 13 0B
  vcan0  18FDB4FE  [08]  80 5C 40 E4 01 0E 00 00
  vcan0  18FD66FE  [08]  49 B1 25 E0 4C 00 74 00
  vcan0  18FED5FE  [03]  32 31 74
  vcan0  18FDE0FE  [08]  C0 55 88 77 00 00 00 00
  vcan0  14FD53FE  [08]  00 81 00 78 C0 9A 00 00
  vcan0  08F02DFE  [07]  A0 41 D8 27 D4 94 33
  vcan0  18FCEAFE  [08]  A0 0F 00 00 00 00 00 00
  vcan0  0CF029FE  [08]  00 80 DD 00 00 B4 18 EA
  vcan0  18FD09FE  [08]  C0 BD 74 67 60 98 1A F1
  vcan0  18FCFFFE  [08]  E0 5B 00 43 00 00 00 00
  vcan0  1CFCFAFE  [08]  50 F5 E0 92 00 00 00 00
  vcan0  1CFCFEFE  [08]  E0 AB 10 21 B6 B4 00 00
  vcan0  18FCF8FE  [08]  20 CB 40 1F 30 A7 00 00
  vcan0  18FD1BFE  [08]  89 FA 70 F8 B0 E5 08 00
  vcan0  18FCF9FE  [08]  10 EF A0 28 30 D9 00 00
  vcan0  18FD1CFE  [08]  FA 19 50 78 B0 81 07 00
  vcan0  18FD6EFE  [08]  A4 42 1C E3 75 0D 1B 00
  vcan0  1CFEB7FE  [10]  10 CC F8 A7 AF 89 94 70 C9 E5
  vcan0  18FEDCFE  [08]  50 AB CA BE B8 59 81 80
  vcan0  18FE6DFE  [08]  4D D5 C5 0D D0 00 00 00
  vcan0  08FE6EFE  [08]  00 EA 00 06 00 AD 00 C4
  vcan0  1CFEB8FE  [22]  26 0F 81 9F EE E6 5E 37 D6 C6 38 2E D6 CF B1 D3 B8 4E D2 B4 00 D0
  vcan0  18FE5DFE  [08]  08 E1 A8 B9 25 00 00 00
  vcan0  18FE63FE  [08]  C0 59 92 F6 08 43 CB 00
  vcan0  18FE65FE  [08]  A0 43 00 00 00 00 00 00
  vcan0  18FEC8FE  [08]  00 00 B6 6A 80 A9 0A 00
  vcan0  18FEF3FE  [08]  29 00 00 00 0E 00 00 00
  vcan0  18FEE7FE  [08]  C8 97 34 6B 40 59 A2 69
  vcan0  18FEE8FE  [08]  80 45 00 A5 80 35 48 63
  vcan0  18FEE0FE  [08]  60 AF EA 15 C8 35 6A 2E
  vcan0  1CFEB6FE  [08]  00 4D A0 0F FA 36 00 00
  vcan0  1CFEB0FE  [20]  E4 95 7B 87 14 EB 62 E3 44 A1 DB 07 FC 6C 75 1C 54 B4 35 DF
  vcan0  1CFEB4FE  [16]  9C 05 F0 5E 4C F5 D7 63 D0 BE C2 4E E8 62 EF 83
  vcan0  1CFEBBFE  [16]  38 60 22 13 20 4A A5 E5 60 1D 54 9C 28 0B AC A7
  vcan0  1CFEBAFE  [12]  70 78 DC AA 20 ED A2 ED 00 31 E3 C2
  vcan0  18D5FEFE  [08]  A0 F2 DD 9B 74 1A 39 DC
  vcan0  18FE4BFE  [08]  FB C9 00 00 00 00 00 00
  vcan0  0C01FEFE  [08]  5A 5A D3 2B 0B 11 AC A0
  vcan0  18FEDDFE  [08]  F9 41 AD 00 00 00 00 00
  vcan0  1CFE4DFE  [08]  00 73 00 A6 00 00 00 00
  vcan0  18FDE2FE  [08]  6A E3 90 66 EA 95 00 00
  vcan0  18FE8FFE  [08]  CC BC 00 00 00 00 00 00
  vcan0  18FEDAFE  [08]  C1 9B 53 DF 00 00 00 00
  vcan0  18FEC0FE  [08]  FA 94 A5 12 5E B2 30 26
  vcan0  1CFE8EFE  [08]  29 9A F6 00 00 00 00 00
  vcan0  18FE53FE  [08]  EC D5 C3 2A 6D 6A ED 6D
  vcan0  18FEFBFE  [08]  AE E9 02 00 00 00 00 00
  vcan0  1CDEFEFE  [08]  04 75 00 DB 00 00 00 00
  vcan0  18FEE1FE  [19]  42 90 60 A0 47 E8 58 6D A8 5B 06 B8 D5 12 B8 2C 2B 36 F9
  vcan0  1CFE95FE  [08]  A5 3B B9 C0 00 00 00 00
  vcan0  18FEF0FE  [08]  E7 F8 59 C0 DC 2D 4A 29
  vcan0  18FDCDFE  [08]  A5 80 2A 1B 69 98 C0 00
  vcan0  0CFDCCFE  [08]  F3 51 4D 3E 63 00 00 00
  vcan0  0CFE75FE  [08]  30 5C 00 00 00 42 18 00
  vcan0  0CFE71FE  [08]  20 7B FA D7 C0 9C A0 00
  vcan0  1CFEB9FE  [22]  76 68 AF E9 72 FE 7C E7 36 23 8E 29 02 1F E7 DD 76 1A 27 77 00 62
  vcan0  0CFE74FE  [08]  7C 15 01 00 00 00 00 00
  vcan0  0CFE73FE  [08]  16 71 00 00 00 00 00 00
  vcan0  1CFEB3FE  [08]  46 90 28 09 74 F9 96 00
  vcan0  18FEF2FE  [08]  B0 27 00 42 00 50 FA 73
  vcan0  18FEE9FE  [08]  D8 1C C2 2E 60 AA 93 BA
  vcan0  1CFDD1FE  [08]  05 D0 00 00 00 00 00 00
  vcan0  18FEBDFE  [08]  25 01 C0 B0 12 4D 19 00
  vcan0  0CF00CFE  [08]  00 00 10 7B 00 00 00 00
  vcan0  1CFEABFE  [08]  B4 11 06 84 00 00 00 00
  vcan0  1CFEC5FE  [08]  F0 DC 00 00 00 00 00 00
  vcan0  1CFEC7FE  [08]  E8 96 38 7E 39 17 00 00
  vcan0  18F005FE  [08]  30 58 98 57 17 00 68 00
  vcan0  0CF002FE  [08]  9A B0 DE B4 31 20 F2 C5
  vcan0  18FE69FE  [08]  C0 7D 20 76 E0 C9 E0 95
  vcan0  18FEA4FE  [08]  A0 97 40 19 00 31 E0 65
  vcan0  18FEEEFE  [08]  40 87 A0 7F A0 7A 85 3C
  vcan0  18FE07FE  [08]  80 32 60 5B 00 00 00 00
  vcan0  18F00BFE  [08]  00 C7 F1 03 5B 0E 00 00
  vcan0  18F000FE  [08]  8B 10 1C 14 36 05 9D F5
  vcan0  18FDE4FE  [08]  1B 00 00 00 00 00 00 00
  vcan0  18FDD2FE  [08]  21 6B 91 00 00 00 00 00
  vcan0  18FDE3FE  [08]  86 00 00 00 00 00 00 00
  vcan0  1CFEA9FE  [08]  30 2A B0 68 50 91 A6 00
  vcan0  1CFE92FE  [08]  24 80 99 B1 EC 7C A8 78
  vcan0  1CFEB1FE  [08]  B0 F6 77 99 44 80 3A B0
  vcan0  0CF00AFE  [08]  0C 67 D4 44 DC B9 00 00
  vcan0  18FE6AFE  [07]  78 34 06 5A 2D 72 0C
  vcan0  18FDC1FE  [08]  00 AC 8A 00 63 20 00 00
  vcan0  18FEDBFE  [08]  00 AB 00 09 00 C1 00 23
  vcan0  18FEEFFE  [08]  98 64 78 C0 00 85 DE CA
  vcan0  1CFE93FE  [08]  70 06 04 00 00 00 00 00
  vcan0  18FDD5FE  [08]  E0 1E 40 02 60 D1 11 3E
  vcan0  1CFEBEFE  [08]  C2 AA 08 98 06 9A 00 00
  vcan0  18FEDFFE  [08]  67 20 F2 F0 2A B0 81 F3
  vcan0  0CF003FE  [08]  AA CF 3E C8 87 D3 B4 08
  vcan0  0CF004FE  [08]  00 5F 0E 48 5B 39 08 E9
  vcan0  18FE54FE  [08]  A4 17 88 ED B4 85 C7 06
  vcan0  18FEE3FE  [39]  38 B0 F8 28 F0 45 08 A8 93 40 13 18 C0 4C 47 78 3A 00 5F AF 10 B0 7C 28 7D 88 41 7B 48 73 6E BE 16 E5 A7 E4 63 F7 6C
  vcan0  18F001FE  [08]  2B B1 1D B8 11 54 AB 28
  vcan0  18FE94FE  [08]  D2 21 6E 00 00 00 00 00
  vcan0  1CFDC9FE  [08]  8D 7A 00 00 00 00 00 00
  vcan0  18E0FEFE  [08]  20 E0 1F A9 58 05 AD 22
  vcan0  18D0FEFE  [08]  E3 00 00 00 00 00 00 00
  vcan0  18FEF1FE  [08]  70 00 ED BC 55 75 0A 8A
  vcan0  18FEEDFE  [08]  AE E6 C9 00 00 00 00 00
  vcan0  18FE67FE  [08]  73 4B 00 00 00 00 00 00
  vcan0  1CFEBCFE  [16]  D8 65 80 F4 D8 8B FD F3 90 9D 31 E5 C2 03 A7 03
  vcan0  18FDE1FE  [08]  36 00 00 00 00 00 00 00
  vcan0  18FE50FE  [08]  47 A6 00 00 00 00 00 00
  vcan0  18FCF5FE  [08]  E0 10 A0 0C C3 00 00 00
  vcan0  18FCF4FE  [08]  00 2D 60 16 40 35 CD 00
  vcan0  18FCF7FE  [08]  E0 DB C0 51 AF 00 00 00
  vcan0  18FCF6FE  [08]  00 B6 80 89 55 00 00 00
  vcan0  18FD14FE  [08]  0F F8 07 F8 89 00 00 00
  vcan0  18FD15FE  [08]  3A 88 86 CC BA 00 00 00
  vcan0  18FD61FE  [08]  70 4D B2 30 FE 74 00 00
  vcan0  18FD64FE  [08]  72 DB 3A 71 13 BF 00 00
  vcan0  08A1FEFE  [09]  3F 56 80 21 78 FD 81 9C 50
  vcan0  18FEFAFE  [08]  0A 18 00 06 00 00 00 00
  vcan0  18FEFEFE  [08]  04 00 00 00 00 00 00 00
  vcan0  18FD20FE  [08]  20 20 E0 94 94 B1 D0 59
  vcan0  18FD48FE  [08]  D0 07 22 06 0E 00 00 00
  vcan0  18FD49FE  [08]  B8 01 04 01 0B 00 00 00
  vcan0  18F021FE  [08]  8E F3 FA D0 18 B0 F0 00
  vcan0  10FD52FE  [08]  01 8B C5 00 00 00 00 00
  vcan0  18F00EFE  [08]  58 DE 99 2D 2A 39 08 0D
  vcan0  18FDB4FE  [08]  80 3B 80 46 1D 01 00 00
  vcan0  18FD66FE  [08]  67 F2 07 20 7F 40 F4 00
  vcan0  18FED5FE  [03]  40 EB 03
  vcan0  18FDE0FE  [08]  F2 D2 94 F2 00 00 00 00
  vcan0  14FD53FE  [08]  00 14 60 55 A0 AD 00 00
  vcan0  08F02DFE  [07]  1C 0C E0 C4 80 A2 21
  vcan0  18FCEAFE  [08]  60 D1 00 00 00 00 00 00
  vcan0  0CF029FE  [08]  00 00 A8 00 80 27 72 4C
  vcan0  18FD09FE  [08]  B0 73 B3 D7 90 95 9B 4D
  vcan0  18FCFFFE  [08]  00 34 C0 3A 00 00 00 00
  vcan0  1CFCFAFE  [08]  30 D9 60 6D 00 00 00 00
  vcan0  1CFCFEFE  [08]  00 E9 D0 69 CA 1E 00 00
  vcan0  18FCF8FE  [08]  D0 07 C0 8F 70 62 00 00
  vcan0  18FD1BFE  [08]  C4 7D 00 7D 40 9C 16 00
  vcan0  18FCF9FE  [08]  90 01 70 DF B0 68 00 00
  vcan0  18FD1CFE  [08]  D4 ED 00 4B D0 CF 07 00
  vcan0  18FD6EFE  [08]  6C CF B0 B3 50 4B 19 00
  vcan0  1CFEB7FE  [10]  98 0A B0 0E 4B 46 D0 29 06 AA
  vcan0  18FEDCFE  [08]  0A 35 07 09 3C 74 AD CE
  vcan0  18FE6DFE  [08]  C6 47 48 0F 0E 00 00 00
  vcan0  08FE6EFE  [08]  00 B8 00 17 00 E6 00 67
  vcan0  1CFEB8FE  [22]  D4 D6 89 A9 DE D4 1A 1B 32 46 30 E6 2E BA F3 34 8A 84 B7 21 00 F6
  vcan0  18FE5DFE  [08]  30 F9 58 A9 3A 00 00 00
  vcan0  18FE63FE  [08]  60 6A 0C 1C 22 0B 37 00
  vcan0  18FE65FE  [08]  00 E1 00 00 00 00 00 00
  vcan0  18FEC8FE  [08]  00 00 2D F4 76 D5 E6 00
  vcan0  18FEF3FE  [08]  1D 00 00 00 10 00 00 00
  vcan0  18FEE7FE  [08]  A0 2A 50 7B D8 29 50 85
  vcan0  18FEE8FE  [08]  00 71 00 E4 00 CE E0 80
  vcan0  18FEE0FE  [08]  08 29 1D 02 78 D1 5B 71
  vcan0  1CFEB6FE  [08]  00 7F 10 0C 5D 45 00 00
  vcan0  1CFEB0FE  [20]  FC F2 2F D1 00 91 C1 B1 A4 50 F7 5E C4 57 59 99 F0 B3 32 8D
  vcan0  1CFEB4FE  [16]  B8 10 29 EA DC 2D 67 7F 54 44 98 42 FC FC 5B BE
  vcan0  1CFEBBFE  [16]  F0 C4 89 B6 D4 44 6E B4 5C C1 AA 4B 90 E2 13 10
  vcan0  1CFEBAFE  [12]  38 A0 79 1C F0 E1 47 8A 48 84 A9 A3
  vcan0  18D5FEFE  [08]  B4 C0 DA AD 48 94 75 A6
  vcan0  18FE4BFE  [08]  40 68 00 00 00 00 00 00
  vcan0  0C01FEFE  [08]  74 2A A2 1D 30 BE 68 2E
  vcan0  18FEDDFE  [08]  23 19 02 80 00 00 00 00
  vcan0  1CFE4DFE  [08]  BC 0C 00 BC 00 00 00 00
  vcan0  18FDE2FE  [08]  F7 5A 9D 10 74 23 00 00
  vcan0  18FE8FFE  [08]  68 DA 00 00 00 00 00 00
  vcan0  18FEDAFE  [08]  A9 C3 1D 25 00 00 00 00
  vcan0  18FEC0FE  [08]  40 C9 86 58 A4 A5 B3 58
  vcan0  1CFE8EFE  [08]  87 CC 31 00 00 00 00 00
  vcan0  18FE53FE  [08]  84 4A 62 79 0E 5A 9E 1C
  vcan0  18FEFBFE  [08]  11 DA 00 00 00 00 00 00
  vcan0  1CDEFEFE  [08]  01 F0 01 C1 00 00 00 00
  vcan0  18FEE1FE  [19]  AA DE 00 5D 9E 40 82 64 E8 C0 41 88 BD A0 70 0C 09 13 DB
  vcan0  1CFE95FE  [08]  57 BF 14 F9 00 00 00 00
  vcan0  18FEF0FE  [08]  E6 20 C6 58 D0 1F 30 13
  vcan0  18FDCDFE  [08]  1E 90 7A 75 D9 E4 20 00
  vcan0  0CFDCCFE  [08]  10 70 46 6B 68 00 00 00
  vcan0  0CFE75FE  [08]  62 02 34 00 00 90 EC 00
  vcan0  0CFE71FE  [08]  EA F6 AC AD 20 9C C2 00
  vcan0  1CFEB9FE  [22]  CC AF BF 7D 32 ED CF D8 C4 3F 64 C7 E6 0E 9E E2 56 61 01 C1 00 A6
  vcan0  0CFE74FE  [08]  22 E7 03 00 00 00 00 00
  vcan0  0CFE73FE  [08]  F4 51 00 00 00 00 00 00
  vcan0  1CFEB3FE  [08]  50 7A 5B 2C 3C 64 94 02
  vcan0  18FEF2FE  [08]  18 56 00 8C 00 D4 E8 69
  vcan0  18FEE9FE  [08]  7E 65 40 42 52 36 0D 16
  vcan0  1CFDD1FE  [08]  03 6C 00 00 00 00 00 00
  vcan0  18FEBDFE  [08]  5C 03 A0 C5 DC 12 5F 00
  vcan0  0CF00CFE  [08]  58 1B 78 5F 00 00 00 00
  vcan0  1CFEABFE  [08]  B5 4F D6 A5 00 00 00 00
  vcan0  1CFEC5FE  [08]  A0 AF 00 00 00 00 00 00
  vcan0  1CFEC7FE  [08]  57 23 11 F1 D1 F6 00 00
  vcan0  18F005FE  [08]  C0 60 EA 49 5E 00 25 00
  vcan0  0CF002FE  [08]  E0 C8 13 E1 11 98 D4 7B
  vcan0  18FE69FE  [08]  C0 01 20 0E 20 37 20 05
  vcan0  18FEA4FE  [08]  E0 62 A0 5C 00 32 80 06
  vcan0  18FEEEFE  [08]  00 62 00 99 60 ED ED D9
  vcan0  18FE07FE  [08]  60 F2 40 09 00 00 00 00
  vcan0  18F00BFE  [08]  00 7D 11 2A 8C 08 00 00
  vcan0  18F000FE  [08]  C3 02 37 90 4F 85 46 3A
  vcan0  18FDE4FE  [08]  56 00 00 00 00 00 00 00
  vcan0  18FDD2FE  [08]  F7 C0 05 00 00 00 00 00
  vcan0  18FDE3FE  [08]  8B 00 00 00 00 00 00 00
  vcan0  1CFEA9FE  [08]  00 AF A0 73 00 64 64 80
  vcan0  1CFE92FE  [08]  82 80 E3 00 E4 43 46 D3
  vcan0  1CFEB1FE  [08]  A0 B4 75 1A 10 44 2F A9
  vcan0  0CF00AFE  [08]  BC 89 7C 74 28 EB 00 00
  vcan0  18FE6AFE  [07]  11 3F D5 ED 26 11 1E
  vcan0  18FDC1FE  [08]  00 25 F9 00 E5 EC 00 00
  vcan0  18FEDBFE  [08]  00 46 00 96 00 E7 00 A7
  vcan0  18FEEFFE  [08]  66 64 69 34 00 CF 31 E8
  vcan0  1CFE93FE  [08]  70 0E 0B 00 00 00 00 00
  vcan0  18FDD5FE  [08]  A0 64 A0 CE D0 E8 31 89
  vcan0  1CFEBEFE  [08]  42 58 80 56 01 80 00 00
  vcan0  18FEDFFE  [08]  E6 A0 5A A7 DF 31 A6 05
  vcan0  0CF003FE  [08]  4B 7A 12 1B 39 67 3E 96
  vcan0  0CF004FE  [08]  0B 7E 5B 08 6E 4B 0C 13
  vcan0  18FE54FE  [08]  34 1C 5D 96 2E EB 7C 09
  vcan0  18FEE3FE  [39]  C0 28 52 38 9A 0D 70 A5 15 C0 D1 BC C0 B4 EB D8 24 00 41 8A CD 60 6D 82 74 A2 11 C0 C8 E5 2C C9 60 2A 6C 5F 25 F7 E8
  vcan0  18F001FE  [08]  EF A7 33 62 5F 4A 7E BC
  vcan0  18FE94FE  [08]  98 B8 B5 00 00 00 00 00
  vcan0  1CFDC9FE  [08]  12 8D 00 00 00 00 00 00
  vcan0  18E0FEFE  [08]  CA 40 DC 78 9C 2E 47 6C
  vcan0  18D0FEFE  [08]  FA 00 00 00 00 00 00 00
  vcan0  18FEF1FE  [08]  2A 00 90 AF 61 4B FE 03
  vcan0  18FEEDFE  [08]  CE 76 8F 00 00 00 00 00
  vcan0  18FE67FE  [08]  AC 10 00 00 00 00 00 00
  vcan0  1CFEBCFE  [16]  68 8D D8 D6 28 2D 86 50 D8 4E AA 68 CC 4D 88 7B
  vcan0  18FDE1FE  [08]  48 00 00 00 00 00 00 00
  vcan0  18FE50FE  [08]  4C B8 00 00 00 00 00 00
  vcan0  18FCF5FE  [08]  E0 36 C0 82 DE 00 00 00
  vcan0  18FCF4FE  [08]  E0 69 A0 49 C0 8A 69 00
  vcan0  18FCF7FE  [08]  E0 1C 60 E0 A0 00 00 00
  vcan0  18FCF6FE  [08]  80 1C 20 5E 0C 00 00 00
  vcan0  18FD14FE  [08]  1C D8 7C 4C 2C 00 00 00
  vcan0  18FD15FE  [08]  25 50 05 84 85 00 00 00
  vcan0  18FD61FE  [08]  BC 71 75 66 2E E0 00 00
  vcan0  18FD64FE  [08]  AC A0 06 CB 41 7B 00 00
  vcan0  08A1FEFE  [09]  42 DC 34 23 D9 6A AD 68 D2
  vcan0  18FEFAFE  [08]  25 4C 8A 3B 00 00 00 00
  vcan0  18FEFEFE  [08]  31 00 00 00 00 00 00 00
  vcan0  18FD20FE  [08]  20 9D 00 08 E4 98 82 1C
  vcan0  18FD48FE  [08]  28 00 5A 05 02 00 00 00
  vcan0  18FD49FE  [08]  70 03 A0 00 0A 00 00 00
  vcan0  18F021FE  [08]  14 5F B2 64 5E 5C E0 00
  vcan0  10FD52FE  [08]  02 03 AA 00 00 00 00 00
  vcan0  18F00EFE  [08]  B4 50 33 0F 3D 7F 1F 1A
  vcan0  18FDB4FE  [08]  E0 A2 C0 09 10 0C 00 00
  vcan0  18FD66FE  [08]  AD 05 66 A0 40 00 47 00
  vcan0  18FED5FE  [03]  C8 4D DE
  vcan0  18FDE0FE  [08]  A2 AF BC 34 00 00 00 00
  vcan0  14FD53FE  [08]  80 3E 20 31 C0 03 00 00
  vcan0  08F02DFE  [07]  1C 70 5C A8 F0 6E C1
  vcan0  18FCEAFE  [08]  C0 2B 00 00 00 00 00 00
  vcan0  0CF029FE  [08]  00 00 F3 00 80 48 9B FA
  vcan0  18FD09FE  [08]  28 AF 33 40 08 2D D4 F0
  vcan0  18FCFFFE  [08]  80 9F 20 64 00 00 00 00
  vcan0  1CFCFAFE  [08]  60 3B 20 03 00 00 00 00
  vcan0  1CFCFEFE  [08]  00 1B 7A D3 82 E1 00 00
  vcan0  18FCF8FE  [08]  90 E2 00 C8 A0 BE 00 00
  vcan0  18FD1BFE  [08]  42 AF D0 07 D0 20 1D 00
  vcan0  18FCF9FE  [08]  20 CB 30 D9 60 D1 00 00
  vcan0  18FD1CFE  [08]  88 89 20 4E E0 79 17 00
  vcan0  18FD6EFE  [08]  DC 4B D0 8E BE CB 45 00
  vcan0  1CFEB7FE  [10]  40 10 30 53 16 4B A0 0F 8A 3E
  vcan0  18FEDCFE  [08]  96 2C 6F 14 00 48 88 84
  vcan0  18FE6DFE  [08]  3C 13 FA 0A 3A 00 00 00
  vcan0  08FE6EFE  [08]  00 3A 00 C0 00 54 00 C7
  vcan0  1CFEB8FE  [22]  C0 62 86 6F 20 7B 47 A9 24 BC 70 9A 88 6B 84 0F 18 AC 7A 79 00 74
  vcan0  18FE5DFE  [08]  00 68 B8 63 BE 00 00 00
  vcan0  18FE63FE  [08]  20 CC 79 0A 02 53 C2 00
  vcan0  18FE65FE  [08]  E0 BD 00 00 00 00 00 00
  vcan0  18FEC8FE  [08]  04 00 03 18 9E 7D B4 00
  vcan0  18FEF3FE  [08]  04 00 00 00 1E 00 00 00
  vcan0  18FEE7FE  [08]  08 2C 23 58 6C 87 47 74
  vcan0  18FEE8FE  [08]  80 9B 00 88 80 B5 60 52
  vcan0  18FEE0FE  [08]  E8 5E 2C 3D 00 26 79 7B
  vcan0  1CFEB6FE  [08]  00 88 40 16 FD 39 00 00
  vcan0  1CFEB0FE  [20]  F8 03 20 D9 74 0F 4C DA 9C 57 D4 E1 CC 96 FB 46 CC 85 44 78
  vcan0  1CFEB4FE  [16]  F8 82 8E 00 30 BC DC 04 00 A6 91 6D 9C FD 02 B3
  vcan0  1CFEBBFE  [16]  E4 3A 27 2D 8C 6A E3 D4 E4 B2 2C EB AC 9E 96 32
  vcan0  1CFEBAFE  [12]  E8 94 28 30 D8 E6 55 38 48 14 64 12
  vcan0  18D5FEFE  [08]  30 1B D0 BA DC 58 96 CE
  vcan0  18FE4BFE  [08]  E0 ED 00 00 00 00 00 00
  vcan0  0C01FEFE  [08]  71 6B D5 50 22 7C 1C AC
  vcan0  18FEDDFE  [08]  56 E8 1B 00 00 00 00 00
  vcan0  1CFE4DFE  [08]  C0 C1 00 82 00 00 00 00
  vcan0  18FDE2FE  [08]  22 1D F9 72 9A BB 00 00
  vcan0  18FE8FFE  [08]  82 5C 00 00 00 00 00 00
  vcan0  18FEDAFE  [08]  89 D5 62 83 00 00 00 00
  vcan0  18FEC0FE  [08]  65 EC AF DA 01 97 44 4E
  vcan0  1CFE8EFE  [08]  20 02 59 00 00 00 00 00
  vcan0  18FE53FE  [08]  1A 4D F6 74 4A 9E BC 25
  vcan0  18FEFBFE  [08]  A3 42 00 00 00 00 00 00
  vcan0  1CDEFEFE  [08]  03 99 00 65 00 00 00 00
  vcan0  18FEE1FE  [19]  57 D0 98 33 91 28 58 8F 78 67 5C B0 9A DC A8 EE BA BD 11
  vcan0  1CFE95FE  [08]  A9 7C 9C 2E 00 00 00 00
  vcan0  18FEF0FE  [08]  5F E0 E6 E0 30 2D 20 27
  vcan0  18FDCDFE  [08]  B3 50 78 87 20 3C 60 00
  vcan0  0CFDCCFE  [08]  26 0F E3 1B F8 00 00 00
  vcan0  0CFE75FE  [08]  7C 0B 69 00 00 E0 6A 00
  vcan0  0CFE71FE  [08]  F4 CE EE A2 94 95 93 00
  vcan0  1CFEB9FE  [22]  F8 04 0A B0 66 A6 8B EE 76 A7 E8 29 50 DD 31 E0 08 7D EE CA 00 60
  vcan0  0CFE74FE  [08]  22 A1 00 00 00 00 00 00
  vcan0  0CFE73FE  [08]  5E B0 00 00 00 00 00 00
  vcan0  1CFEB3FE  [08]  8E A3 BC 1C BC 93 94 02
  vcan0  18FEF2FE  [08]  68 38 00 14 00 AE D4 52
  vcan0  18FEE9FE  [08]  9A 1D A3 89 BA 38 FA 52
  vcan0  1CFDD1FE  [08]  01 9E 00 00 00 00 00 00
  vcan0  18FEBDFE  [08]  AF 08 68 4E FA D6 11 00
  vcan0  0CF00CFE  [08]  D8 59 68 9F 00 00 00 00
  vcan0  1CFEABFE  [08]  B7 17 88 0F 00 00 00 00
  vcan0  1CFEC5FE  [08]  A5 70 00 00 00 00 00 00
  vcan0  1CFEC7FE  [08]  8E C8 24 6F 12 4E 00 00
  vcan0  18F005FE  [08]  D5 F0 D2 EB 73 00 7D 00
  vcan0  0CF002FE  [08]  D6 D8 62 43 29 F0 B1 BA
  vcan0  18FE69FE  [08]  80 3E 40 E0 00 24 60 7A
  vcan0  18FEA4FE  [08]  80 B9 40 39 80 62 00 6D
  vcan0  18FEEEFE  [08]  40 5E 40 2B 00 BC B9 5A
  vcan0  18FE07FE  [08]  80 8C 60 6F 00 00 00 00
  vcan0  18F00BFE  [08]  00 B2 7D 08 79 06 00 00
  vcan0  18F000FE  [08]  A7 C0 23 A8 83 28 32 1B
  vcan0  18FDE4FE  [08]  14 00 00 00 00 00 00 00
  vcan0  18FDD2FE  [08]  EF AB 89 00 00 00 00 00
  vcan0  18FDE3FE  [08]  F4 00 00 00 00 00 00 00
  vcan0  1CFEA9FE  [08]  60 9F 30 D9 C0 76 92 40
  vcan0  1CFE92FE  [08]  C4 00 11 1B 04 6A B4 AD
  vcan0  1CFEB1FE  [08]  D8 A2 8D 62 F0 C7 59 4D
  vcan0  0CF00AFE  [08]  60 A9 5C F3 0C F8 00 00
  vcan0  18FE6AFE  [07]  02 57 19 E8 AD 18 09
  vcan0  18FDC1FE  [08]  00 87 82 00 E2 A8 00 00
  vcan0  18FEDBFE  [08]  00 D4 00 11 00 BC 00 3E
  vcan0  18FEEFFE  [08]  CF 64 37 F9 00 79 98 BB
  vcan0  1CFE93FE  [08]  9C 67 0D 00 00 00 00 00
  vcan0  18FDD5FE  [08]  80 BF E0 3E A0 0F 21 78
  vcan0  1CFEBEFE  [08]  E4 04 38 38 04 AB 00 00
  vcan0  18FEDFFE  [08]  F8 00 46 AC 98 F0 2D D6
  vcan0  0CF003FE  [08]  3F 1B 90 66 82 E3 05 37
  vcan0  0CF004FE  [08]  01 BD 2A E0 C2 E1 0E 47
  vcan0  18FE54FE  [08]  6F AB 39 05 82 9F EB A6
  vcan0  18FEE3FE  [39]  D8 52 93 00 C4 19 50 F6 24 28 3C 6E 70 CF B3 B0 D9 00 2D B8 8E C8 5D 28 58 C5 67 F6 48 E7 8E 8F 9A B4 93 75 87 4F F2
  vcan0  18F001FE  [08]  61 1E 5E 6D 1B EF E1 84
  vcan0  18FE94FE  [08]  BF E6 32 00 00 00 00 00
  vcan0  1CFDC9FE  [08]  2F 93 00 00 00 00 00 00
  vcan0  18E0FEFE  [08]  B4 80 18 E0 E0 55 D9 3D
  vcan0  18D0FEFE  [08]  3C 00 00 00 00 00 00 00
  vcan0  18FEF1FE  [08]  A0 00 2C 80 44 B2 67 95
  vcan0  18FEEDFE  [08]  25 59 A0 00 00 00 00 00
  vcan0  18FE67FE  [08]  10 A8 00 00 00 00 00 00
  vcan0  1CFEBCFE  [16]  B0 DD 5A 50 B0 5A E3 46 60 45 21 BD 4B 08 B8 40
  vcan0  18FDE1FE  [08]  3A 00 00 00 00 00 00 00
  vcan0  18FE50FE  [08]  DC B6 00 00 00 00 00 00
  vcan0  18FCF5FE  [08]  40 AA E0 46 4B 00 00 00
  vcan0  18FCF4FE  [08]  20 87 00 EC C0 D4 70 00
  vcan0  18FCF7FE  [08]  C0 EF 60 43 8C 00 00 00
  vcan0  18FCF6FE  [08]  A0 4C 60 77 ED 00 00 00
  vcan0  18FD14FE  [08]  19 70 F3 50 64 00 00 00
  vcan0  18FD15FE  [08]  05 E8 C1 28 9B 00 00 00
  vcan0  18FD61FE  [08]  F4 FB 2A 03 40 15 00 00
  vcan0  18FD64FE  [08]  14 EA 73 4E 24 92 00 00
  vcan0  08A1FEFE  [09]  E0 FB F7 13 72 7C 57 6F 81
  vcan0  18FEFAFE  [08]  83 81 87 28 00 00 00 00
  vcan0  18FEFEFE  [08]  5C 00 00 00 00 00 00 00
  vcan0  18FD20FE  [08]  A0 39 E0 72 D8 9F 93 7E
  vcan0  18FD48FE  [08]  FE 01 BC 02 0A 00 00 00
  vcan0  18FD49FE  [08]  1E 00 EC 04 09 00 00 00
  vcan0  18F021FE  [08]  22 23 BC AA 9C A8 94 00
  vcan0  10FD52FE  [08]  00 91 B4 00 00 00 00 00
  vcan0  18F00EFE  [08]  E4 89 65 B6 6C 1C 11 14
  vcan0  18FDB4FE  [08]  80 38 20 C2 18 12 00 00
  vcan0  18FD66FE  [08]  4F F4 1B 20 EF 00 3E 00
  vcan0  18FED5FE  [03]  E6 C2 07
  vcan0  18FDE0FE  [08]  93 2F 6C 07 00 00 00 00
  vcan0  14FD53FE  [08]  C0 1B 60 18 00 B9 00 00
  vcan0  08F02DFE  [07]  F4 E2 58 02 A8 7A 42
  vcan0  18FCEAFE  [08]  A0 BE 00 00 00 00 00 00
  vcan0  0CF029FE  [08]  00 00 B4 00 80 C1 21 00
  vcan0  18FD09FE  [08]  98 EA 77 0A 08 59 64 BC
  vcan0  18FCFFFE  [08]  A0 AB 00 59 00 00 00 00
  vcan0  1CFCFAFE  [08]  50 46 60 D1 00 00 00 00
  vcan0  1CFCFEFE  [08]  C0 E4 52 53 46 BB 00 00
  vcan0  18FCF8FE  [08]  C0 5D 90 C9 40 83 00 00
  vcan0  18FD1BFE  [08]  7A 57 00 96 00 7D 1E 00
  vcan0  18FCF9FE  [08]  30 5C C0 DA E0 15 00 00
  vcan0  18FD1CFE  [08]  0D 0C A0 0F 00 19 0D 00
  vcan0  18FD6EFE  [08]  B0 1D 80 C0 28 6C 25 00
  vcan0  1CFEB7FE  [10]  08 92 A8 EC A0 48 70 50 44 82
  vcan0  18FEDCFE  [08]  54 14 FF 83 84 CB F0 1E
  vcan0  18FE6DFE  [08]  84 51 4B 0B 41 00 00 00
  vcan0  08FE6EFE  [08]  00 30 00 56 00 66 00 96
  vcan0  1CFEB8FE  [22]  4C 8F 21 9E E6 48 D0 D5 52 8E DE DC E8 26 FC 8F 26 F5 99 61 00 56
  vcan0  18FE5DFE  [08]  A0 79 78 56 DF 00 00 00
  vcan0  18FE63FE  [08]  00 38 97 98 01 4C 74 00
  vcan0  18FE65FE  [08]  20 18 00 00 00 00 00 00
  vcan0  18FEC8FE  [08]  04 00 BC F1 4C 72 78 00
  vcan0  18FEF3FE  [08]  07 00 00 00 04 00 00 00
  vcan0  18FEE7FE  [08]  50 B0 E0 C3 7C E3 4C 71
  vcan0  18FEE8FE  [08]  80 32 00 2C 80 2B E8 98
  vcan0  18FEE0FE  [08]  60 A7 1F 7C F0 B4 3D E0
  vcan0  1CFEB6FE  [08]  00 57 40 B1 6A 6D 00 00
  vcan0  1CFEB0FE  [20]  18 BF 8B 06 70 87 05 71 90 57 13 F0 F4 BA 12 CF C0 50 1B 2E
  vcan0  1CFEB4FE  [16]  1C 0C B1 30 C0 28 4D C9 84 5C D1 34 4C 93 35 63
  vcan0  1CFEBBFE  [16]  3C AE 11 D1 50 84 A9 90 78 99 65 29 3C D3 89 07
  vcan0  1CFEBAFE  [12]  B8 5F 98 4B E0 33 56 08 50 6D 70 8B
  vcan0  18D5FEFE  [08]  30 A1 63 0E 28 3C 69 53
  vcan0  18FE4BFE  [08]  B9 6C 00 00 00 00 00 00
  vcan0  0C01FEFE  [08]  23 A5 16 81 0B B4 74 ED
  vcan0  18FEDDFE  [08]  EF EC 35 C0 00 00 00 00
  vcan0  1CFE4DFE  [08]  B4 00 00 3A 00 00 00 00
  vcan0  18FDE2FE  [08]  81 46 8C 20 4A 33 00 00
  vcan0  18FE8FFE  [08]  5A A1 00 00 00 00 00 00
  vcan0  18FEDAFE  [08]  F3 0B D5 A2 00 00 00 00
  vcan0  18FEC0FE  [08]  98 96 F6 81 36 6B CA F5
  vcan0  1CFE8EFE  [08]  42 1F 3C 00 00 00 00 00
  vcan0  18FE53FE  [08]  CD CD 08 56 F1 CD A1 DB
  vcan0  18FEFBFE  [08]  62 6A 03 00 00 00 00 00
  vcan0  1CDEFEFE  [08]  07 F5 01 7D 00 00 00 00
  vcan0  18FEE1FE  [19]  10 27 E0 0E 67 70 02 06 38 EF 65 B0 83 C1 10 84 D3 E7 B4
  vcan0  1CFE95FE  [08]  B6 D0 9A 99 00 00 00 00
  vcan0  18FEF0FE  [08]  CA C8 91 F0 DA 39 36 2E
  vcan0  18FDCDFE  [08]  52 30 D7 7A 66 08 20 00
  vcan0  0CFDCCFE  [08]  06 1C 7D A9 CB 00 00 00
  vcan0  0CFE75FE  [08]  A0 D7 69 00 00 2C D3 00
  vcan0  0CFE71FE  [08]  1A 3B F4 47 E9 CB 5F 00
  vcan0  1CFEB9FE  [22]  A2 68 93 C0 E6 C0 CA BB 44 DA 10 C7 C2 8C 21 56 DC CE CA 91 00 8E
  vcan0  0CFE74FE  [08]  CA D5 02 00 00 00 00 00
  vcan0  0CFE73FE  [08]  9C 13 00 00 00 00 00 00
  vcan0  1CFEB3FE  [08]  46 25 59 D2 E4 98 CC 01
  vcan0  18FEF2FE  [08]  A4 AB 00 64 00 E8 98 AF
  vcan0  18FEE9FE  [08]  34 E8 BB 9B 32 64 0F 4B
  vcan0  1CFDD1FE  [08]  0C 36 00 00 00 00 00 00
  vcan0  18FEBDFE  [08]  87 0B 18 BE 8A 22 CD 00
  vcan0  0CF00CFE  [08]  80 BB 50 85 00 00 00 00
  vcan0  1CFEABFE  [08]  D4 5E 17 39 00 00 00 00
  vcan0  1CFEC5FE  [08]  19 52 00 00 00 00 00 00
  vcan0  1CFEC7FE  [08]  2A 61 15 2D 4C DA 00 00
  vcan0  18F005FE  [08]  BA 28 A0 F4 90 00 23 00
  vcan0  0CF002FE  [08]  C8 C8 49 C5 13 80 B4 A1
  vcan0  18FE69FE  [08]  E0 32 C0 F9 40 31 A0 3A
  vcan0  18FEA4FE  [08]  40 98 00 05 00 AE 40 3D
  vcan0  18FEEEFE  [08]  60 06 A0 36 80 AA 62 23
  vcan0  18FE07FE  [08]  20 DB A0 F3 00 00 00 00
  vcan0  18F00BFE  [08]  00 06 0E 06 D7 04 00 00
  vcan0  18F000FE  [08]  30 8A 84 4F 52 11 73 39
  vcan0  18FDE4FE  [08]  19 00 00 00 00 00 00 00
  vcan0  18FDD2FE  [08]  5D 7B E6 00 00 00 00 00
  vcan0  18FDE3FE  [08]  44 00 00 00 00 00 00 00
  vcan0  1CFEA9FE  [08]  50 14 F0 EB 30 A7 27 40
  vcan0  1CFE92FE  [08]  F4 80 C9 E6 B8 74 78 DA
  vcan0  1CFEB1FE  [08]  08 3D 71 10 58 72 36 31
  vcan0  0CF00AFE  [08]  1C C5 D8 63 D4 76 00 00
  vcan0  18FE6AFE  [07]  1B A1 54 B4 7D 08 1E
  vcan0  18FDC1FE  [08]  00 AE 9A 00 B8 8C 00 00
  vcan0  18FEDBFE  [08]  00 E7 00 E7 00 4A 00 79
  vcan0  18FEEFFE  [08]  DE 8C D9 7E 00 A0 76 05
  vcan0  1CFE93FE  [08]  EE 4D 03 00 00 00 00 00
  vcan0  18FDD5FE  [08]  A0 EC 80 6C 80 ED 33 A2
  vcan0  1CFEBEFE  [08]  B0 5F F8 C1 03 61 00 00
  vcan0  18FEDFFE  [08]  05 20 95 5B F4 F4 65 F2
  vcan0  0CF003FE  [08]  42 3E 6B 25 DE 45 5C 2C
  vcan0  0CF004FE  [08]  06 B1 A0 40 42 69 06 C0
  vcan0  18FE54FE  [08]  37 2A 94 EA 80 56 1C AF
  vcan0  18FEE3FE  [39]  78 5B 85 D8 8C 77 E0 44 84 E8 39 34 D8 04 D3 B8 7C 00 F0 95 8F B8 66 D2 76 D8 D8 29 A8 32 66 E9 9D 4B 3C 05 96 E9 91
  vcan0  18F001FE  [08]  37 9D 97 51 EB 8C 1F FC
  vcan0  18FE94FE  [08]  A4 7D A4 00 00 00 00 00
  vcan0  1CFDC9FE  [08]  A1 22 00 00 00 00 00 00
  vcan0  18E0FEFE  [08]  D2 C0 DB B5 88 BD E8 57
  vcan0  18D0FEFE  [08]  E8 00 00 00 00 00 00 00
  vcan0  18FEF1FE  [08]  2C 00 58 44 30 C2 04 88
  vcan0  18FEEDFE  [08]  45 FA 77 00 00 00 00 00
  vcan0  18FE67FE  [08]  B4 81 00 00 00 00 00 00
  vcan0  1CFEBCFE  [16]  40 98 F2 45 88 B2 B9 AC F8 2D 9F 7D BF 2F 2B 13
  vcan0  18FDE1FE  [08]  A9 00 00 00 00 00 00 00
  vcan0  18FE50FE  [08]  C9 67 00 00 00 00 00 00
  vcan0  18FCF5FE  [08]  60 9E 40 DC CA 00 00 00
  vcan0  18FCF4FE  [08]  40 6A 80 69 80 AD 55 00
  vcan0  18FCF7FE  [08]  A0 A6 E0 E2 55 00 00 00
  vcan0  18FCF6FE  [08]  80 54 00 C8 87 00 00 00
  vcan0  18FD14FE  [08]  3C 34 1C 58 C0 00 00 00
  vcan0  18FD15FE  [08]  35 84 3A 0C 6C 00 00 00
  vcan0  18FD61FE  [08]  04 F3 FA AD 7C 1F 00 00
  vcan0  18FD64FE  [08]  0D A7 2C 6E C4 9F 00 00
  vcan0  08A1FEFE  [09]  42 25 E8 6E 2C D6 B5 06 82
  vcan0  18FEFAFE  [08]  1E 6E 72 0F 00 00 00 00
  vcan0  18FEFEFE  [08]  A6 00 00 00 00 00 00 00
  vcan0  18FD20FE  [08]  C0 A3 20 A6 EE B1 31 1D
  vcan0  18FD48FE  [08]  44 07 F8 02 0F 00 00 00
  vcan0  18FD49FE  [08]  7C 01 4C 04 0A 00 00 00
  vcan0  18F021FE  [08]  D4 48 5A 5F 50 C0 B0 00
  vcan0  10FD52FE  [08]  01 F9 D9 00 00 00 00 00
  vcan0  18F00EFE  [08]  BC CA FE E3 1A 24 16 0F
  vcan0  18FDB4FE  [08]  C0 C2 E0 3E 08 19 00 00
  vcan0  18FD66FE  [08]  A9 48 61 00 21 C0 C2 00
  vcan0  18FED5FE  [03]  20 96 1E
  vcan0  18FDE0FE  [08]  AF 8C 04 A6 00 00 00 00
  vcan0  14FD53FE  [08]  60 7D A0 78 A0 7D 00 00
  vcan0  08F02DFE  [07]  74 8B 4C 9A 50 C3 DB
  vcan0  18FCEAFE  [08]  D0 6B 00 00 00 00 00 00
  vcan0  0CF029FE  [08]  00 80 85 00 00 6D 3F 2C
  vcan0  18FD09FE  [08]  D8 10 FB AC C0 27 93 66
  vcan0  18FCFFFE  [08]  80 DC 60 98 00 00 00 00
  vcan0  1CFCFAFE  [08]  A0 0F 20 E4 00 00 00 00
  vcan0  1CFCFEFE  [08]  60 E4 8A 0B 2A A7 00 00
  vcan0  18FCF8FE  [08]  00 32 30 A7 A0 28 00 00
  vcan0  18FD1BFE  [08]  46 64 90 B0 E0 15 1E 00
  vcan0  18FCF9FE  [08]  E0 AB 90 7E D0 E8 00 00
  vcan0  18FD1CFE  [08]  8A 00 80 BB 70 62 08 00
  vcan0  18FD6EFE  [08]  08 25 68 38 A5 3F 2C 00
  vcan0  1CFEB7FE  [10]  A8 70 60 93 61 16 64 8D 07 75
  vcan0  18FEDCFE  [08]  1E B0 6F EF 58 41 77 44
  vcan0  18FE6DFE  [08]  E6 0A ED 02 E8 00 00 00
  vcan0  08FE6EFE  [08]  00 5B 00 DB 00 9E 00 52
  vcan0  1CFEB8FE  [22]  52 48 BA A6 E0 CF 79 73 64 80 A0 69 6C 33 CE E2 E6 0C 0B B2 00 F0
  vcan0  18FE5DFE  [08]  48 82 78 5D 6A 00 00 00
  vcan0  18FE63FE  [08]  A0 B8 86 EB 08 42 95 00
  vcan0  18FE65FE  [08]  80 D9 00 00 00 00 00 00
  vcan0  18FEC8FE  [08]  04 00 B6 7E B4 50 28 00
  vcan0  18FEF3FE  [08]  16 00 00 00 04 00 00 00
  vcan0  18FEE7FE  [08]  28 B8 59 93 28 67 07 73
  vcan0  18FEE8FE  [08]  00 CF 00 6D 00 4C 60 5C
  vcan0  18FEE0FE  [08]  70 0B 7E C7 F8 FC D7 9B
  vcan0  1CFEB6FE  [08]  00 CF 10 1D C1 32 00 00
  vcan0  1CFEB0FE  [20]  94 C2 E2 2A 20 0D 10 0E BC A3 7A 43 04 AD 65 D9 E8 5F ED 29
  vcan0  1CFEB4FE  [16]  F4 6E 90 25 20 96 A6 0C C0 A5 F0 67 A0 B2 14 DE
  vcan0  1CFEBBFE  [16]  F4 66 6E B3 08 CF 6A E0 58 4A 2E A2 AC 15 B2 72
  vcan0  1CFEBAFE  [12]  C8 38 14 A4 78 97 FE 30 C0 E8 9F 0A
  vcan0  18D5FEFE  [08]  2C EF DB 0E F8 5D 6F E7
  vcan0  18FE4BFE  [08]  70 6E 00 00 00 00 00 00
  vcan0  0C01FEFE  [08]  76 D7 4C B0 16 50 24 36
  vcan0  18FEDDFE  [08]  E0 45 42 C0 00 00 00 00
  vcan0  1CFE4DFE  [08]  B8 6A 00 22 00 00 00 00
  vcan0  18FDE2FE  [08]  54 91 90 D9 74 44 00 00
  vcan0  18FE8FFE  [08]  86 EE 00 00 00 00 00 00
  vcan0  18FEDAFE  [08]  F8 57 21 01 00 00 00 00
  vcan0  18FEC0FE  [08]  F2 BD 4B B4 36 D7 F3 7F
  vcan0  1CFE8EFE  [08]  9F A5 F4 00 00 00 00 00
  vcan0  18FE53FE  [08]  F6 D3 B1 D9 1F CF 71 6A
  vcan0  18FEFBFE  [08]  A0 A5 01 00 00 00 00 00
  vcan0  1CDEFEFE  [08]  09 9F 09 C5 00 00 00 00
  vcan0  18FEE1FE  [19]  51 D0 B0 4E 63 00 46 4C 60 08 A9 00 5F 86 50 7D B4 4B 00
  vcan0  1CFE95FE  [08]  2D 60 C1 CE 00 00 00 00
  vcan0  18FEF0FE  [08]  D4 20 6F 10 BA 0A 98 10
  vcan0  18FDCDFE  [08]  B2 00 DC 2A 1B F0 60 00
  vcan0  0CFDCCFE  [08]  F1 4B 52 12 CA 00 00 00
  vcan0  0CFE75FE  [08]  2C 3D AB 00 00 38 95 00
  vcan0  0CFE71FE  [08]  C2 F1 26 39 47 1C 9A 00
  vcan0  1CFEB9FE  [22]  4E 71 D8 23 B8 1F 82 45 3A F4 64 59 46 67 B2 48 46 76 62 CA 00 EC
  vcan0  0CFE74FE  [08]  36 15 01 00 00 00 00 00
  vcan0  0CFE73FE  [08]  82 D7 00 00 00 00 00 00
  vcan0  1CFEB3FE  [08]  E2 33 83 A8 8C D2 3A 02
  vcan0  18FEF2FE  [08]  00 46 00 6C 00 CC 9B 66
  vcan0  18FEE9FE  [08]  CE 04 FD E0 24 A0 10 30
  vcan0  1CFDD1FE  [08]  0A 96 00 00 00 00 00 00
  vcan0  18FEBDFE  [08]  E6 05 D0 1E 54 AC 23 00
  vcan0  0CF00CFE  [08]  38 4A 60 2D 00 00 00 00
  vcan0  1CFEABFE  [08]  85 E0 41 9B 00 00 00 00
  vcan0  1CFEC5FE  [08]  91 9B 00 00 00 00 00 00
  vcan0  1CFEC7FE  [08]  25 93 0C FF 2F AA 00 00
  vcan0  18F005FE  [08]  63 80 3E 91 F0 00 A9 00
  vcan0  0CF002FE  [08]  5C 20 EE AA 28 20 C2 93
  vcan0  18FE69FE  [08]  A0 62 00 3A A0 2A 60 17
  vcan0  18FEA4FE  [08]  20 4F A0 14 00 5B 80 F9
  vcan0  18FEEEFE  [08]  C0 A3 E0 00 60 C9 65 05
  vcan0  18FE07FE  [08]  20 3F E0 93 00 00 00 00
  vcan0  18F00BFE  [08]  00 16 7F 06 5D 0E 00 00
  vcan0  18F000FE  [08]  5A 73 F1 CE F0 5A A0 70
  vcan0  18FDE4FE  [08]  E2 00 00 00 00 00 00 00
  vcan0  18FDD2FE  [08]  4B 80 2A 00 00 00 00 00
  vcan0  18FDE3FE  [08]  76 00 00 00 00 00 00 00
  vcan0  1CFEA9FE  [08]  20 4E 40 51 C0 44 24 C0
  vcan0  1CFE92FE  [08]  8E 80 3D A5 30 1B 2A C0
  vcan0  1CFEB1FE  [08]  90 DB F8 F4 1C 85 05 40
  vcan0  0CF00AFE  [08]  74 4A 38 9A E8 99 00 00
  vcan0  18FE6AFE  [07]  E1 18 AC CF 61 20 15
  vcan0  18FDC1FE  [08]  00 64 CE 00 F4 2C 00 00
  vcan0  18FEDBFE  [08]  00 37 00 30 00 A7 00 5F
  vcan0  18FEEFFE  [08]  B5 00 20 22 80 7E 9C 5C
  vcan0  1CFE93FE  [08]  12 50 06 00 00 00 00 00
  vcan0  18FDD5FE  [08]  60 ED 80 9B F0 B9 12 55
  vcan0  1CFEBEFE  [08]  D6 46 20 0C 0C AB 00 00
  vcan0  18FEDFFE  [08]  D4 28 45 31 BA B6 8F D5
  vcan0  0CF003FE  [08]  FD 23 B6 B4 D2 49 25 5D
  vcan0  0CF004FE  [08]  0D 01 92 D8 8D B2 0D E9
  vcan0  18FE54FE  [08]  D3 97 F9 36 AD 22 46 4A
  vcan0  18FEE3FE  [39]  90 CB B5 58 A1 3E 60 87 F7 00 56 51 C8 0E DF 60 A3 00 F5 5D AD 60 BE BE 38 80 DE 09 B0 9B 9A 10 8A 01 0C A5 E8 84 3F
  vcan0  18F001FE  [08]  0E 7F 81 5D F5 AC 76 C0
  vcan0  18FE94FE  [08]  18 03 4E 00 00 00 00 00
  vcan0  1CFDC9FE  [08]  9F 49 00 00 00 00 00 00
  vcan0  18E0FEFE  [08]  87 00 A3 D0 6C C4 A9 50
  vcan0  18D0FEFE  [08]  73 00 00 00 00 00 00 00
  vcan0  18FEF1FE  [08]  07 00 C4 55 92 C7 D0 78
  vcan0  18FEEDFE  [08]  B5 14 6B 00 00 00 00 00
  vcan0  18FE67FE  [08]  F3 19 00 00 00 00 00 00
  vcan0  1CFEBCFE  [16]  08 77 A2 95 C8 AF 8E 1C 78 8E 97 8E 0D 25 2A 91
  vcan0  18FDE1FE  [08]  27 00 00 00 00 00 00 00
  vcan0  18FE50FE  [08]  20 49 00 00 00 00 00 00
  vcan0  18FCF5FE  [08]  60 AC 40 9B 84 00 00 00
  vcan0  18FCF4FE  [08]  E0 31 A0 4E C0 D9 3C 00
  vcan0  18FCF7FE  [08]  40 07 40 CC C3 00 00 00
  vcan0  18FCF6FE  [08]  A0 FA 00 D5 87 00 00 00
  vcan0  18FD14FE  [08]  3A 9C DB A0 37 00 00 00
  vcan0  18FD15FE  [08]  15 5C 44 64 E6 00 00 00
  vcan0  18FD61FE  [08]  90 CF F7 48 2E EA 00 00
  vcan0  18FD64FE  [08]  21 45 AC D1 E1 DF 00 00
  vcan0  08A1FEFE  [09]  F5 E4 EE A0 D2 90 80 83 F9
  vcan0  18FEFAFE  [08]  EB AA 1E 20 00 00 00 00
  vcan0  18FEFEFE  [08]  E9 00 00 00 00 00 00 00
  vcan0  18FD20FE  [08]  A0 EB 20 8B 14 05 5A 7E
  vcan0  18FD48FE  [08]  3C 00 54 01 01 00 00 00
  vcan0  18FD49FE  [08]  DC 05 58 02 00 00 00 00
  vcan0  18F021FE  [08]  9A A7 C2 2C 34 46 DC 00
  vcan0  10FD52FE  [08]  03 99 25 00 00 00 00 00
  vcan0  18F00EFE  [08]  A8 C0 66 1E AF 47 0A 1A
  vcan0  18FDB4FE  [08]  40 5C 40 AE 0A 13 00 00
  vcan0  18FD66FE  [08]  8D 5E 25 E0 12 40 3D 00
  vcan0  18FED5FE  [03]  FE 9A 81
  vcan0  18FDE0FE  [08]  46 0F 58 7F 00 00 00 00
  vcan0  14FD53FE  [08]  20 52 20 A9 A0 C1 00 00
  vcan0  08F02DFE  [07]  A8 48 2C 1A 94 A7 E8
  vcan0  18FCEAFE  [08]  90 97 00 00 00 00 00 00
  vcan0  0CF029FE  [08]  00 00 E9 00 00 53 00 44
  vcan0  18FD09FE  [08]  E8 2A EC 5F C8 9F FD F3
  vcan0  18FCFFFE  [08]  40 BF 40 4D 00 00 00 00
  vcan0  1CFCFAFE  [08]  70 F8 30 8E 00 00 00 00
  vcan0  1CFCFEFE  [08]  60 BA 30 3C F7 D9 00 00
  vcan0  18FCF8FE  [08]  20 35 A0 41 B0 B3 00 00
  vcan0  18FD1BFE  [08]  32 57 A0 8C D0 6B 02 00
  vcan0  18FCF9FE  [08]  B0 81 A0 41 00 00 00 00
  vcan0  18FD1CFE  [08]  C2 C8 70 7B F0 87 1B 00
  vcan0  18FD6EFE  [08]  20 08 C8 BE F2 57 01 00
  vcan0  1CFEB7FE  [10]  18 87 B0 E6 3C F5 F0 79 88 8F
  vcan0  18FEDCFE  [08]  F6 43 B7 DD 00 2D 32 F0
  vcan0  18FE6DFE  [08]  DC E6 8C 00 1D 00 00 00
  vcan0  08FE6EFE  [08]  00 00 00 58 00 4B 00 44
  vcan0  1CFEB8FE  [22]  5C 3D FA 7E AA 20 63 E3 8A C6 B1 A0 76 D8 3A 26 8C 28 0C 4F 00 9C
  vcan0  18FE5DFE  [08]  80 62 E8 E6 AD 00 00 00
  vcan0  18FE63FE  [08]  E0 5B EB B5 21 B0 7D 00
  vcan0  18FE65FE  [08]  20 E5 00 00 00 00 00 00
  vcan0  18FEC8FE  [08]  05 00 3A D8 56 BC 64 00
  vcan0  18FEF3FE  [08]  12 00 00 00 12 00 00 00
  vcan0  18FEE7FE  [08]  04 7B 57 24 0C C1 9A 38
  vcan0  18FEE8FE  [08]  80 55 00 92 80 E4 78 21
  vcan0  18FEE0FE  [08]  F0 1A 42 CC C0 0D 52 1F
  vcan0  1CFEB6FE  [08]  00 53 80 F4 BC 76 00 00
  vcan0  1CFEB0FE  [20]  4C 1C 95 07 B0 A6 26 1E A4 68 46 75 88 EE D2 8D C4 6F C6 E6
  vcan0  1CFEB4FE  [16]  98 38 FD C7 54 D2 AA 7E 38 E2 1F 84 08 7E D5 C6
  vcan0  1CFEBBFE  [16]  68 EF AD 45 4C 10 CF 7E 74 9D 92 74 90 DD 98 A3
  vcan0  1CFEBAFE  [12]  70 56 92 97 F0 1F DF E0 A0 44 FE 2E
  vcan0  18D5FEFE  [08]  00 9D 31 2E 88 CE C0 BF
  vcan0  18FE4BFE  [08]  7B 6F 00 00 00 00 00 00
  vcan0  0C01FEFE  [08]  40 A0 75 50 1D 01 38 DF
  vcan0  18FEDDFE  [08]  B9 85 12 00 00 00 00 00
  vcan0  1CFE4DFE  [08]  04 0B 00 AC 00 00 00 00
  vcan0  18FDE2FE  [08]  80 9E A1 DE 87 C8 00 00
  vcan0  18FE8FFE  [08]  5E 3F 00 00 00 00 00 00
  vcan0  18FEDAFE  [08]  F0 15 36 16 00 00 00 00
  vcan0  18FEC0FE  [08]  ED EE CB CC 28 84 67 7D
  vcan0  1CFE8EFE  [08]  BB F8 49 00 00 00 00 00
  vcan0  18FE53FE  [08]  10 80 16 84 F5 32 02 41
  vcan0  18FEFBFE  [08]  C7 1A 03 00 00 00 00 00
  vcan0  1CDEFEFE  [08]  0B 73 01 27 00 00 00 00
  vcan0  18FEE1FE  [19]  FA C5 60 AE 1C 58 8E A0 A8 4B 79 D8 C0 06 E8 A4 84 8E 4C
  vcan0  1CFE95FE  [08]  87 81 C2 CF 00 00 00 00
  vcan0  18FEF0FE  [08]  A4 78 5F 78 6B 0D 2F 12
  vcan0  18FDCDFE  [08]  CF 80 96 7A B9 08 40 00
  vcan0  0CFDCCFE  [08]  AD 84 87 3C AD 00 00 00
  vcan0  0CFE75FE  [08]  A2 1C DB 00 00 AC 44 00
  vcan0  0CFE71FE  [08]  46 91 28 C3 26 BE D8 00
  vcan0  1CFEB9FE  [22]  7A 32 F3 DA 4A 76 41 8E CC 27 13 68 26 96 AC 2F EA 6D 36 3A 00 8E
  vcan0  0CFE74FE  [08]  50 AA 03 00 00 00 00 00
  vcan0  0CFE73FE  [08]  80 E3 00 00 00 00 00 00
  vcan0  1CFEB3FE  [08]  40 F9 34 5E DC DC C0 03
  vcan0  18FEF2FE  [08]  68 DD 00 AE 00 BE 07 6B
  vcan0  18FEE9FE  [08]  02 3B 29 B3 F0 D0 D6 BB
  vcan0  1CFDD1FE  [08]  07 4D 00 00 00 00 00 00
  vcan0  18FEBDFE  [08]  D7 01 60 96 F4 AD E6 00
  vcan0  0CF00CFE  [08]  60 6D D8 39 00 00 00 00
  vcan0  1CFEABFE  [08]  40 38 2A 98 00 00 00 00
  vcan0  1CFEC5FE  [08]  70 9D 00 00 00 00 00 00
  vcan0  1CFEC7FE  [08]  93 E8 2B 83 39 79 00 00
  vcan0  18F005FE  [08]  6D C8 32 80 3E 00 8E 00
  vcan0  0CF002FE  [08]  AE D0 39 C5 05 20 05 8F
  vcan0  18FE69FE  [08]  00 1C 40 9F 80 AD A0 96
  vcan0  18FEA4FE  [08]  80 C6 60 3A 80 CA C0 CD
  vcan0  18FEEEFE  [08]  A0 0C E0 AC 60 C6 83 78
  vcan0  18FE07FE  [08]  80 5E 80 6E 00 00 00 00
  vcan0  18F00BFE  [08]  00 0F 0C 0A DB 04 00 00
  vcan0  18F000FE  [08]  A9 26 C4 37 04 B4 2D DF
  vcan0  18FDE4FE  [08]  62 00 00 00 00 00 00 00
  vcan0  18FDD2FE  [08]  88 1D 28 00 00 00 00 00
  vcan0  18FDE3FE  [08]  7F 00 00 00 00 00 00 00
  vcan0  1CFEA9FE  [08]  90 33 F0 A0 00 4B 7E 40
  vcan0  1CFE92FE  [08]  F3 00 B1 C0 F8 02 C0 CC
  vcan0  1CFEB1FE  [08]  88 BC 20 AD 84 86 19 4A
  vcan0  0CF00AFE  [08]  34 21 CC 38 98 EE 00 00
  vcan0  18FE6AFE  [07]  55 A1 EC 5A 36 0C 0C
  vcan0  18FDC1FE  [08]  00 D0 90 00 F9 57 00 00
  vcan0  18FEDBFE  [08]  00 F8 00 A3 00 57 00 CF
  vcan0  18FEEFFE  [08]  04 50 B6 90 80 8B 6E CF
  vcan0  1CFE93FE  [08]  0E 71 08 00 00 00 00 00
  vcan0  18FDD5FE  [08]  A0 28 00 A1 50 AA 20 BB
  vcan0  1CFEBEFE  [08]  70 C3 98 6E 09 8C 00 00
  vcan0  18FEDFFE  [08]  0E 98 36 15 D7 FD F7 D6
  vcan0  0CF003FE  [08]  28 82 0B ED 78 05 9B F8
  vcan0  0CF004FE  [08]  09 E5 17 D8 2B 4D 0F EE
  vcan0  18FE54FE  [08]  4D D6 6F 32 23 D5 E7 53
  vcan0  18FEE3FE  [39]  08 5E ED F0 F6 C7 10 08 9D 30 B9 9F 60 B3 64 90 43 00 2D 50 F1 38 F0 FA 1D 17 69 6E 38 AB A0 0F F8 E6 5C 09 17 21 9D
  vcan0  18F001FE  [08]  8D 70 C6 4D 02 75 E0 1C
  vcan0  18FE94FE  [08]  AC 50 0D 00 00 00 00 00
  vcan0  1CFDC9FE  [08]  FE 7E 00 00 00 00 00 00
  vcan0  18E0FEFE  [08]  A5 40 64 F8 94 17 45 2C
  vcan0  18D0FEFE  [08]  E3 00 00 00 00 00 00 00
  vcan0  18FEF1FE  [08]  B0 00 60 96 18 92 C6 8A
  vcan0  18FEEDFE  [08]  58 61 0F 00 00 00 00 00
  vcan0  18FE67FE  [08]  F4 BC 00 00 00 00 00 00
  vcan0  1CFEBCFE  [16]  E0 48 DE C9 00 29 CD 1F C0 25 6F 56 57 3A 87 55
  vcan0  18FDE1FE  [08]  21 00 00 00 00 00 00 00
  vcan0  18FE50FE  [08]  1E B6 00 00 00 00 00 00
  vcan0  18FCF5FE  [08]  00 97 80 32 50 00 00 00
  vcan0  18FCF4FE  [08]  60 DB 60 6C 20 B3 69 00
  vcan0  18FCF7FE  [08]  60 D3 60 CA A0 00 00 00
  vcan0  18FCF6FE  [08]  80 C6 E0 C9 75 00 00 00
  vcan0  18FD14FE  [08]  3B 9C 36 50 0F 00 00 00
  vcan0  18FD15FE  [08]  3F B4 D2 74 EF 00 00 00
  vcan0  18FD61FE  [08]  44 5A 41 4D 12 0C 00 00
  vcan0  18FD64FE  [08]  71 C5 EB AE 3B BA 00 00
  vcan0  08A1FEFE  [09]  F3 15 71 72 6E B5 61 C8 61
  vcan0  18FEFAFE  [08]  9A 0E DC 3C 00 00 00 00
  vcan0  18FEFEFE  [08]  2D 00 00 00 00 00 00 00
  vcan0  18FD20FE  [08]  60 81 80 9E 02 6C B0 3D
  vcan0  18FD48FE  [08]  18 01 40 01 0A 00 00 00
  vcan0  18FD49FE  [08]  C6 02 B6 03 0C 00 00 00
  vcan0  18F021FE  [08]  60 B8 E8 37 E2 F0 08 00
  vcan0  10FD52FE  [08]  01 DE 9B 00 00 00 00 00
  vcan0  18F00EFE  [08]  70 F3 00 00 91 3F 00 16
  vcan0  18FDB4FE  [08]  40 51 40 A7 0C 00 00 00
  vcan0  18FD66FE  [08]  B3 1B 37 40 5E 20 DB 00
  vcan0  18FED5FE  [03]  F4 34 51
  vcan0  18FDE0FE  [08]  E3 20 60 22 00 00 00 00
  vcan0  14FD53FE  [08]  A0 01 C0 7D 40 E6 00 00
  vcan0  08F02DFE  [07]  C0 12 78 69 20 03 EB
  vcan0  18FCEAFE  [08]  90 C9 00 00 00 00 00 00
  vcan0  0CF029FE  [08]  00 00 BB 00 80 40 FA DC
  vcan0  18FD09FE  [08]  D8 25 53 BD D0 37 3E 1E
  vcan0  18FCFFFE  [08]  60 F5 C0 F8 00 00 00 00
  vcan0  1CFCFAFE  [08]  60 6D E0 DD 00 00 00 00
  vcan0  1CFCFEFE  [08]  C0 AE DE 6F 4D F0 00 00
  vcan0  18FCF8FE  [08]  B0 81 00 7D 70 94 00 00
  vcan0  18FD1BFE  [08]  AD 7D 00 AF F0 87 0D 00
  vcan0  18FCF9FE  [08]  F0 6E 20 B2 D0 07 00 00
  vcan0  18FD1CFE  [08]  7D 19 A0 73 80 BB 1B 00
  vcan0  18FD6EFE  [08]  80 9D 88 27 66 7C 18 00
  vcan0  1CFEB7FE  [10]  D8 E5 60 A8 84 6B 94 9D 2D AF
  vcan0  18FEDCFE  [08]  72 3A 26 15 D0 E2 98 AE
  vcan0  18FE6DFE  [08]  EF D1 C0 0C 99 00 00 00
  vcan0  08FE6EFE  [08]  00 8D 00 15 00 61 00 38
  vcan0  1CFEB8FE  [22]  B8 C5 95 97 CE 8F 2E E6 AA 3C 18 7B 6E D3 B7 36 80 9D E6 45 00 C6
  vcan0  18FE5DFE  [08]  10 4D 10 F3 89 00 00 00
  vcan0  18FE63FE  [08]  60 33 A7 3F 01 0A 2C 00
  vcan0  18FE65FE  [08]  20 83 00 00 00 00 00 00
  vcan0  18FEC8FE  [08]  00 00 7D A3 C7 E2 8C 00
  vcan0  18FEF3FE  [08]  03 00 00 00 16 00 00 00
  vcan0  18FEE7FE  [08]  40 81 C9 2E C0 44 6F C2
  vcan0  18FEE8FE  [08]  00 E6 00 FA 80 81 80 C9
  vcan0  18FEE0FE  [08]  C0 0D 89 F7 C0 3A AA 1A
  vcan0  1CFEB6FE  [08]  00 09 A8 99 C8 6D 00 00
  vcan0  1CFEB0FE  [20]  B0 FC 83 B0 98 3E EB 5B DC 42 B4 36 98 A9 4D D9 DC 25 46 E4
  vcan0  1CFEB4FE  [16]  88 9D 63 94 BC AA 0C 91 7C 2E D4 0D 80 8E CF 76
  vcan0  1CFEBBFE  [16]  6C C0 DE E4 B8 EB 5D AD 90 2B 58 5F C8 42 66 2F
  vcan0  1CFEBAFE  [12]  90 72 20 0C 68 9B F5 31 30 40 E0 05
  vcan0  18D5FEFE  [08]  48 5C 96 B4 14 BC 91 21
  vcan0  18FE4BFE  [08]  DC 43 00 00 00 00 00 00
  vcan0  0C01FEFE  [08]  42 82 D4 8A 01 03 B4 39
  vcan0  18FEDDFE  [08]  0F C2 8C 40 00 00 00 00
  vcan0  1CFE4DFE  [08]  44 A2 00 BC 00 00 00 00
  vcan0  18FDE2FE  [08]  23 F1 CC CC 1D 38 00 00
  vcan0  18FE8FFE  [08]  BC 9B 00 00 00 00 00 00
  vcan0  18FEDAFE  [08]  28 00 27 CC 00 00 00 00
  vcan0  18FEC0FE  [08]  BE C1 D6 88 6E D2 CA D9
  vcan0  1CFE8EFE  [08]  A4 4A 81 00 00 00 00 00
  vcan0  18FE53FE  [08]  19 62 EC F9 89 0F 64 4D
  vcan0  18FEFBFE  [08]  1C 07 00 00 00 00 00 00
  vcan0  1CDEFEFE  [08]  06 75 07 BA 00 00 00 00
  vcan0  18FEE1FE  [19]  CA 58 70 77 DD 40 83 C3 60 F1 06 E0 D8 95 88 7E 74 3D 71
  vcan0  1CFE95FE  [08]  02 47 9C 06 00 00 00 00
  vcan0  18FEF0FE  [08]  81 58 71 88 4A 08 25 0B
  vcan0  18FDCDFE  [08]  1F 30 7A 4B 2A 74 E0 00
  vcan0  0CFDCCFE  [08]  63 6D 75 5C D8 00 00 00
  vcan0  0CFE75FE  [08]  5C 3A D7 00 00 6E BE 00
  vcan0  0CFE71FE  [08]  58 02 F6 45 D6 79 0F 00
  vcan0  1CFEB9FE  [22]  5E AD B5 10 7E 3E 02 0D B6 EC 45 6A 2E 96 64 52 F8 C5 EA CA 00 D8
  vcan0  0CFE74FE  [08]  FE 33 03 00 00 00 00 00
  vcan0  0CFE73FE  [08]  72 8D 00 00 00 00 00 00
  vcan0  1CFEB3FE  [08]  9C 04 98 F4 28 6E 08 02
  vcan0  18FEF2FE  [08]  74 AE 00 A2 00 EC 8C 3C
  vcan0  18FEE9FE  [08]  30 50 5D D7 C4 16 C4 72
  vcan0  1CFDD1FE  [08]  0A 80 00 00 00 00 00 00
  vcan0  18FEBDFE  [08]  61 0E 30 70 E4 72 50 00
  vcan0  0CF00CFE  [08]  40 9C F0 6D 00 00 00 00
  vcan0  1CFEABFE  [08]  79 4B CB 2F 00 00 00 00
  vcan0  1CFEC5FE  [08]  D2 A2 00 00 00 00 00 00
  vcan0  1CFEC7FE  [08]  6E 8E 0A B4 D8 0F 00 00
  vcan0  18F005FE  [08]  0D 90 65 89 31 00 6C 00
  vcan0  0CF002FE  [08]  8A 88 19 05 3B 48 47 62
  vcan0  18FE69FE  [08]  A0 F3 C0 9C 60 0A 00 BD
  vcan0  18FEA4FE  [08]  40 1E 40 8A 00 54 00 F7
  vcan0  18FEEEFE  [08]  C0 24 40 32 A0 2B 6B 8C
  vcan0  18FE07FE  [08]  20 C9 C0 DE 00 00 00 00
  vcan0  18F00BFE  [08]  00 A7 A3 34 22 0C 00 00
  vcan0  18F000FE  [08]  58 97 FA 67 1C 21 E8 61
  vcan0  18FDE4FE  [08]  A6 00 00 00 00 00 00 00
  vcan0  18FDD2FE  [08]  15 28 A5 00 00 00 00 00
  vcan0  18FDE3FE  [08]  F5 00 00 00 00 00 00 00
  vcan0  1CFEA9FE  [08]  F0 3C 20 B2 20 80 37 40
  vcan0  1CFE92FE  [08]  F0 80 A7 C0 18 C9 E2 B6
  vcan0  1CFEB1FE  [08]  B0 B3 21 0C 68 5E CF 37
  vcan0  0CF00AFE  [08]  F8 7A 60 13 C8 91 00 00
  vcan0  18FE6AFE  [07]  6B 96 FA 73 92 DB 14
  vcan0  18FDC1FE  [08]  00 66 16 00 97 9E 00 00
  vcan0  18FEDBFE  [08]  00 94 00 11 00 10 00 11
  vcan0  18FEEFFE  [08]  52 50 B4 8A 80 8E F8 DE
  vcan0  1CFE93FE  [08]  8E 80 0A 00 00 00 00 00
  vcan0  18FDD5FE  [08]  E0 E7 20 63 F0 3C 31 23
  vcan0  1CFEBEFE  [08]  3C 7F B0 87 0F B5 00 00
  vcan0  18FEDFFE  [08]  2E 30 00 84 08 C5 EE 85
  vcan0  0CF003FE  [08]  81 E3 C0 91 CD 3C 69 6B
  vcan0  0CF004FE  [08]  0A 25 91 A0 3A 2E 08 31
  vcan0  18FE54FE  [08]  12 83 CE AD E0 D2 19 5A
  vcan0  18FEE3FE  [39]  E0 8E 8C 00 F6 87 80 AC 57 E0 45 52 C0 6A EF 10 D6 00 46 51 86 F0 14 C8 7D C0 F9 5B 70 42 DA 2F E3 31 89 1B 9F 82 10
  vcan0  18F001FE  [08]  95 9D A6 02 4B ED F9 2C
  vcan0  18FE94FE  [08]  E2 A1 5C 00 00 00 00 00
  vcan0  1CFDC9FE  [08]  22 74 00 00 00 00 00 00
  vcan0  18E0FEFE  [08]  7A C0 C2 86 58 CF 10 58
  vcan0  18D0FEFE  [08]  B9 00 00 00 00 00 00 00
  vcan0  18FEF1FE  [08]  18 00 57 15 DC AF DE E4
  vcan0  18FEEDFE  [08]  29 AE 9F 00 00 00 00 00
  vcan0  18FE67FE  [08]  6C EB 00 00 00 00 00 00
  vcan0  1CFEBCFE  [16]  90 62 3B A7 40 A8 70 59 78 42 2D 22 3A C1 4D FA
  vcan0  18FDE1FE  [08]  A5 00 00 00 00 00 00 00
  vcan0  18FE50FE  [08]  9C 13 00 00 00 00 00 00
  vcan0  18FCF5FE  [08]  00 E5 A0 92 C0 00 00 00
  vcan0  18FCF4FE  [08]  60 62 C0 9A 80 6D A5 00
  vcan0  18FCF7FE  [08]  80 27 60 AF 41 00 00 00
  vcan0  18FCF6FE  [08]  60 A8 C0 8E 91 00 00 00
  vcan0  18FD14FE  [08]  0E F4 A6 68 8D 00 00 00
  vcan0  18FD15FE  [08]  05 B8 F1 44 C0 00 00 00
  vcan0  18FD61FE  [08]  50 CD 1A F4 F0 69 00 00
  vcan0  18FD64FE  [08]  F7 2C B7 23 3D 4C 00 00
  vcan0  08A1FEFE  [09]  A7 E5 ED 3D 5B 44 88 22 BB
  vcan0  18FEFAFE  [08]  CA F2 06 16 00 00 00 00
  vcan0  18FEFEFE  [08]  DB 00 00 00 00 00 00 00
  vcan0  18FD20FE  [08]  60 F0 E0 CF 92 8B FD 11
  vcan0  18FD48FE  [08]  68 01 FE 06 0E 00 00 00
  vcan0  18FD49FE  [08]  90 06 26 02 04 00 00 00
  vcan0  18F021FE  [08]  9E EB 70 3E 7A 09 18 00
  vcan0  10FD52FE  [08]  02 46 EB 00 00 00 00 00
  vcan0  18F00EFE  [08]  60 CC 66 44 1B 04 12 0A
  vcan0  18FDB4FE  [08]  60 D2 40 3C 0D 0F 00 00
  vcan0  18FD66FE  [08]  5D 50 57 00 42 80 14 00
  vcan0  18FED5FE  [03]  06 AE BF
  vcan0  18FDE0FE  [08]  FA 8C 6C 6B 00 00 00 00
  vcan0  14FD53FE  [08]  40 2F E0 97 A0 1D 00 00
  vcan0  08F02DFE  [07]  F4 65 94 11 54 6F 77
  vcan0  18FCEAFE  [08]  70 F8 00 00 00 00 00 00
  vcan0  0CF029FE  [08]  00 00 7C 00 00 27 AD 8C
  vcan0  18FD09FE  [08]  F8 BD 3E F6 C8 79 53 47
  vcan0  18FCFFFE  [08]  E0 CA 40 1D 00 00 00 00
  vcan0  1CFCFAFE  [08]  E0 47 60 EA 00 00 00 00
  vcan0  1CFCFEFE  [08]  60 A2 A0 89 5A 02 00 00
  vcan0  18FCF8FE  [08]  C0 44 A0 A5 80 3E 00 00
  vcan0  18FD1BFE  [08]  AF 32 00 C8 B0 9A 1A 00
  vcan0  18FCF9FE  [08]  A0 D7 80 A2 B0 68 00 00
  vcan0  18FD1CFE  [08]  74 AF D0 6B 00 00 1E 00
  vcan0  18FD6EFE  [08]  B8 B0 10 C7 D2 30 8E 00
  vcan0  1CFEB7FE  [10]  A8 C0 88 73 D7 EB 54 0C 80 29
  vcan0  18FEDCFE  [08]  DE 8D AA 63 6C 2D 06 F1
  vcan0  18FE6DFE  [08]  D4 E7 6B 0E CE 00 00 00
  vcan0  08FE6EFE  [08]  00 88 00 BC 00 C2 00 09
  vcan0  1CFEB8FE  [22]  70 81 80 D3 08 EB BD E8 0C 54 99 F3 4C DD 65 C0 FE 4B 5A BA 00 48
  vcan0  18FE5DFE  [08]  B8 C8 08 20 35 00 00 00
  vcan0  18FE63FE  [08]  60 7F 92 61 00 1A AA 00
  vcan0  18FE65FE  [08]  00 56 00 00 00 00 00 00
  vcan0  18FEC8FE  [08]  00 00 F4 B4 28 C9 B4 00
  vcan0  18FEF3FE  [08]  16 00 00 00 03 00 00 00
  vcan0  18FEE7FE  [08]  00 00 B5 36 74 D8 44 A5
  vcan0  18FEE8FE  [08]  80 D9 00 1F 80 A0 70 92
  vcan0  18FEE0FE  [08]  50 76 0F 91 60 DC F1 8C
  vcan0  1CFEB6FE  [08]  00 69 F0 80 F2 50 00 00
  vcan0  1CFEB0FE  [20]  B8 97 80 3E E4 EB 6A 92 0C D1 AF B8 44 3B 7A F1 F4 2F 04 14
  vcan0  1CFEB4FE  [16]  EC BB 33 B0 C4 B0 A1 DE 3C 19 9B BE 10 63 8B 06
  vcan0  1CFEBBFE  [16]  E4 21 1D 91 20 C8 68 95 FC 99 3C 0F 34 58 45 83
  vcan0  1CFEBAFE  [12]  A8 9D CD 2F 38 71 F2 76 80 3D 41 8A
  vcan0  18D5FEFE  [08]  04 6F 5D 6B 24 BC 2C 87
  vcan0  18FE4BFE  [08]  E1 88 00 00 00 00 00 00
  vcan0  0C01FEFE  [08]  53 48 1C 8D 05 47 F8 A5
  vcan0  18FEDDFE  [08]  EF 74 E9 80 00 00 00 00
  vcan0  1CFE4DFE  [08]  58 E3 00 12 00 00 00 00
  vcan0  18FDE2FE  [08]  B1 95 14 F3 51 2C 00 00
  vcan0  18FE8FFE  [08]  8E 37 00 00 00 00 00 00
  vcan0  18FEDAFE  [08]  CB A0 06 55 00 00 00 00
  vcan0  18FEC0FE  [08]  71 7D 9B B3 D3 6E BC 4E
  vcan0  1CFE8EFE  [08]  A4 B1 68 00 00 00 00 00
  vcan0  18FE53FE  [08]  5E C6 2D 00 6A E0 1B 46
  vcan0  18FEFBFE  [08]  BB CF 02 00 00 00 00 00
  vcan0  1CDEFEFE  [08]  07 1A 0B 5F 00 00 00 00
  vcan0  18FEE1FE  [19]  B0 0A 18 39 17 A0 CA B7 58 BC A0 A0 DD CB 80 B5 B3 6C A9
  vcan0  1CFE95FE  [08]  1A 3A AA 7D 00 00 00 00
  vcan0  18FEF0FE  [08]  49 88 30 78 7C 35 C8 2F
  vcan0  18FDCDFE  [08]  B9 10 C8 0A E1 50 40 00
  vcan0  0CFDCCFE  [08]  E2 DB E6 8C 01 00 00 00
  vcan0  0CFE75FE  [08]  A2 67 30 00 00 DA D4 00
  vcan0  0CFE71FE  [08]  C2 1A 0A C8 A5 53 62 00
  vcan0  1CFEB9FE  [22]  00 AA E9 4A AA 07 2F E8 7C 24 33 99 98 C7 AD 1E 76 49 23 EE 00 B6
  vcan0  0CFE74FE  [08]  AC A3 02 00 00 00 00 00
  vcan0  0CFE73FE  [08]  18 65 00 00 00 00 00 00
  vcan0  1CFEB3FE  [08]  44 A0 DD 8F D4 AD 00 00
  vcan0  18FEF2FE  [08]  74 3B 00 0C 00 94 11 DE
  vcan0  18FEE9FE  [08]  74 74 16 77 EE AB F5 B6
  vcan0  1CFDD1FE  [08]  0A 3D 00 00 00 00 00 00
  vcan0  18FEBDFE  [08]  D2 0E 08 F7 1E 61 3C 00
  vcan0  0CF00CFE  [08]  60 6D C8 4E 00 00 00 00
  vcan0  1CFEABFE  [08]  50 E3 A6 CA 00 00 00 00
  vcan0  1CFEC5FE  [08]  11 23 00 00 00 00 00 00
  vcan0  1CFEC7FE  [08]  41 9B 00 CB 10 EF 00 00
  vcan0  18F005FE  [08]  D0 F8 2A 83 62 00 41 00
  vcan0  0CF002FE  [08]  93 F8 7A 69 10 F8 8E 03
  vcan0  18FE69FE  [08]  A0 55 C0 78 20 75 00 F4
  vcan0  18FEA4FE  [08]  80 62 C0 22 80 56 00 1A
  vcan0  18FEEEFE  [08]  60 68 20 DE 00 33 EF 2D
  vcan0  18FE07FE  [08]  00 12 80 E3 00 00 00 00
  vcan0  18F00BFE  [08]  00 21 A1 29 CD 0D 00 00
  vcan0  18F000FE  [08]  9F 99 F6 4B 3E 95 41 39
  vcan0  18FDE4FE  [08]  58 00 00 00 00 00 00 00
  vcan0  18FDD2FE  [08]  9D 98 5A 00 00 00 00 00
  vcan0  18FDE3FE  [08]  FA 00 00 00 00 00 00 00
  vcan0  1CFEA9FE  [08]  C0 8F C0 76 00 00 5D 80
  vcan0  1CFE92FE  [08]  B6 80 C8 BE 4C D1 18 8D
  vcan0  1CFEB1FE  [08]  00 9F 5B A8 78 59 D4 EA
  vcan0  0CF00AFE  [08]  60 95 D4 30 0C 5D 00 00
  vcan0  18FE6AFE  [07]  BB 38 36 DE 51 EF 14
  vcan0  18FDC1FE  [08]  00 83 7D 00 6F 8A 00 00
  vcan0  18FEDBFE  [08]  00 BA 00 BB 00 5E 00 96
  vcan0  18FEEFFE  [08]  27 3C A7 0B 00 7D 24 43
  vcan0  1CFE93FE  [08]  D8 74 06 00 00 00 00 00
  vcan0  18FDD5FE  [08]  40 2E 80 7E 40 6A 20 CA
  vcan0  1CFEBEFE  [08]  A2 10 00 A0 03 C3 00 00
  vcan0  18FEDFFE  [08]  F0 10 03 01 A1 E9 11 9D
  vcan0  0CF003FE  [08]  71 69 B6 C5 6E C4 46 61
  vcan0  0CF004FE  [08]  03 06 DD A8 70 7F 05 04
  vcan0  18FE54FE  [08]  F6 68 74 71 B6 7D 9B D6
  vcan0  18FEE3FE  [39]  B0 35 D8 E8 8F DA 40 80 1C E8 CB 3B 50 95 76 B0 60 00 C3 2F 50 88 41 46 DB 70 13 ED 98 95 88 13 6C 8C 90 76 40 B5 B4
  vcan0  18F001FE  [08]  E4 CD D1 41 F0 11 57 B8
  vcan0  18FE94FE  [08]  A1 43 4A 00 00 00 00 00
  vcan0  1CFDC9FE  [08]  9D 38 00 00 00 00 00 00
  vcan0  18E0FEFE  [08]  0F 00 CA 0C 74 DE 47 B9
  vcan0  18D0FEFE  [08]  D9 00 00 00 00 00 00 00
  vcan0  18FEF1FE  [08]  0D 00 68 66 8E 90 C4 A6
  vcan0  18FEEDFE  [08]  8E 98 56 00 00 00 00 00
  vcan0  18FE67FE  [08]  39 22 00 00 00 00 00 00
  vcan0  1CFEBCFE  [16]  E0 AE B8 B3 68 87 DA 89 00 7D FF 46 EC 82 18 D9
  vcan0  18FDE1FE  [08]  F3 00 00 00 00 00 00 00
  vcan0  18FE50FE  [08]  20 7D 00 00 00 00 00 00
  vcan0  18FCF5FE  [08]  80 84 A0 A2 89 00 00 00
  vcan0  18FCF4FE  [08]  20 48 80 2C C0 A2 78 00
  vcan0  18FCF7FE  [08]  60 97 E0 4B 1E 00 00 00
  vcan0  18FCF6FE  [08]  00 F3 40 45 19 00 00 00
  vcan0  18FD14FE  [08]  3D F8 89 C4 0E 00 00 00
  vcan0  18FD15FE  [08]  3A 44 02 80 39 00 00 00
  vcan0  18FD61FE  [08]  8C 0C BF 70 AC AD 00 00
  vcan0  18FD64FE  [08]  F4 97 A8 5C 43 9E 00 00
  vcan0  08A1FEFE  [09]  31 F5 B9 64 CC 32 E5 AC 2A
  vcan0  18FEFAFE  [08]  05 4F C2 3D 00 00 00 00
  vcan0  18FEFEFE  [08]  10 00 00 00 00 00 00 00
  vcan0  18FD20FE  [08]  E0 B0 E0 99 8A DE 2B 4F
  vcan0  18FD48FE  [08]  08 07 26 07 07 00 00 00
  vcan0  18FD49FE  [08]  1C 07 14 00 0E 00 00 00
  vcan0  18F021FE  [08]  6C D8 BC 33 5C C4 4C 00
  vcan0  10FD52FE  [08]  01 6E A5 00 00 00 00 00
  vcan0  18F00EFE  [08]  48 49 99 2D D0 65 0D 1B
  vcan0  18FDB4FE  [08]  E0 F2 A0 5D 1F 1A 00 00
  vcan0  18FD66FE  [08]  26 B5 25 20 D3 40 4E 00
  vcan0  18FED5FE  [03]  E6 39 3E
  vcan0  18FDE0FE  [08]  82 5C F8 5C 00 00 00 00
  vcan0  14FD53FE  [08]  E0 F6 20 DE 00 E1 00 00
  vcan0  08F02DFE  [07]  74 D6 9C 31 D4 62 13
  vcan0  18FCEAFE  [08]  F0 EB 00 00 00 00 00 00
  vcan0  0CF029FE  [08]  00 80 3A 00 00 7E 25 5C
  vcan0  18FD09FE  [08]  00 E2 30 C9 40 89 2D B8
  vcan0  18FCFFFE  [08]  60 5C 20 EE 00 00 00 00
  vcan0  1CFCFAFE  [08]  20 67 F0 D2 00 00 00 00
  vcan0  1CFCFEFE  [08]  60 D2 AE 20 AC 2D 00 00
  vcan0  18FCF8FE  [08]  B0 1D 10 59 80 D4 00 00
  vcan0  18FD1BFE  [08]  B6 E1 20 4E 50 AA 12 00
  vcan0  18FCF9FE  [08]  C0 DA 30 75 40 E7 00 00
  vcan0  18FD1CFE  [08]  5D 4B 00 19 70 49 11 00
  vcan0  18FD6EFE  [08]  70 DF A4 4C 37 DB E9 00
  vcan0  1CFEB7FE  [10]  58 D4 B0 0F 69 F5 10 13 5E 47
  vcan0  18FEDCFE  [08]  48 8A BC BE 70 30 B8 33
  vcan0  18FE6DFE  [08]  94 A8 8C 04 9F 00 00 00
  vcan0  08FE6EFE  [08]  00 D6 00 98 00 96 00 97
  vcan0  1CFEB8FE  [22]  22 9F 61 31 10 A6 AC E7 50 60 3E 21 EC 5F 66 D9 5E CE 39 08 00 F8
  vcan0  18FE5DFE  [08]  58 0D 50 3B 83 00 00 00
  vcan0  18FE63FE  [08]  20 B1 C4 A7 02 E7 5C 00
  vcan0  18FE65FE  [08]  C0 3F 00 00 00 00 00 00
  vcan0  18FEC8FE  [08]  05 00 64 B7 D5 0C 96 00
  vcan0  18FEF3FE  [08]  1E 00 00 00 28 00 00 00
  vcan0  18FEE7FE  [08]  A8 8B 91 9E 14 EF CC E8
  vcan0  18FEE8FE  [08]  00 61 00 E8 00 CC 20 21
  vcan0  18FEE0FE  [08]  08 F4 E9 64 08 66 79 7B
  vcan0  1CFEB6FE  [08]  00 D2 68 CA 72 2E 00 00
  vcan0  1CFEB0FE  [20]  E8 18 B5 5D E8 F6 37 F2 80 9E 83 A8 24 72 0D D4 30 29 69 65
  vcan0  1CFEB4FE  [16]  B4 DA 4D CD 20 93 4E 35 5C EB C0 01 A0 BE 21 34
  vcan0  1CFEBBFE  [16]  30 E4 CB BA 04 1B 7B C4 E8 1B 4A AC 7C E4 4A 8B
  vcan0  1CFEBAFE  [12]  C0 7E E8 30 68 F6 39 B8 C0 12 51 3B
  vcan0  18D5FEFE  [08]  68 21 1F CA E4 89 00 9B
  vcan0  18FE4BFE  [08]  87 1C 00 00 00 00 00 00
  vcan0  0C01FEFE  [08]  8E 00 93 FD 31 14 E4 24
  vcan0  18FEDDFE  [08]  F7 DB D9 00 00 00 00 00
  vcan0  1CFE4DFE  [08]  34 F3 00 66 00 00 00 00
  vcan0  18FDE2FE  [08]  D2 A1 BF 9B 91 DC 00 00
  vcan0  18FE8FFE  [08]  3E 20 00 00 00 00 00 00
  vcan0  18FEDAFE  [08]  1F 67 0B 55 00 00 00 00
  vcan0  18FEC0FE  [08]  BD FF EE 6F 18 71 40 B1
  vcan0  1CFE8EFE  [08]  6C 2D 6A 00 00 00 00 00
  vcan0  18FE53FE  [08]  B1 81 50 1E 9F 29 F6 80
  vcan0  18FEFBFE  [08]  58 3F 02 00 00 00 00 00
  vcan0  1CDEFEFE  [08]  07 2F 03 AE 00 00 00 00
  vcan0  18FEE1FE  [19]  5E BE D8 13 65 E0 44 1C 18 14 29 F0 E6 CB 60 70 7E A8 53
  vcan0  1CFE95FE  [08]  16 68 D6 E0 00 00 00 00
  vcan0  18FEF0FE  [08]  47 10 82 68 B4 0E 3C 22
  vcan0  18FDCDFE  [08]  4D 10 3C 32 73 20 20 00
  vcan0  0CFDCCFE  [08]  81 7E 28 C1 B3 00 00 00
  vcan0  0CFE75FE  [08]  44 70 8E 00 00 56 0E 00
  vcan0  0CFE71FE  [08]  1A CC A6 A9 43 2D 57 00
  vcan0  1CFEB9FE  [22]  00 76 69 C8 2A D4 67 2B 20 FF 5C 6C BA 2C 2D BE A6 19 6E AA 00 F6
  vcan0  0CFE74FE  [08]  40 88 04 00 00 00 00 00
  vcan0  0CFE73FE  [08]  0C 53 00 00 00 00 00 00
  vcan0  1CFEB3FE  [08]  5C CF F4 7D 24 5E F4 01
  vcan0  18FEF2FE  [08]  E4 E3 00 48 00 24 64 02
  vcan0  18FEE9FE  [08]  B2 9A D2 03 10 E7 BA 60
  vcan0  1CFDD1FE  [08]  05 14 00 00 00 00 00 00
  vcan0  18FEBDFE  [08]  50 05 F0 45 EE 6C 50 00
  vcan0  0CF00CFE  [08]  F8 2A B0 29 00 00 00 00
  vcan0  1CFEABFE  [08]  2E 49 73 C8 00 00 00 00
  vcan0  1CFEC5FE  [08]  A7 0F 00 00 00 00 00 00
  vcan0  1CFEC7FE  [08]  37 ED 1C 23 23 9D 00 00
  vcan0  18F005FE  [08]  4F B8 88 16 B2 00 E0 00
  vcan0  0CF002FE  [08]  1B C8 68 39 30 C8 34 D9
  vcan0  18FE69FE  [08]  80 6D A0 59 E0 9B 00 E6
  vcan0  18FEA4FE  [08]  A0 67 20 DC 80 2D 20 B4
  vcan0  18FEEEFE  [08]  40 82 E0 66 20 F1 B1 2A
  vcan0  18FE07FE  [08]  60 6C 60 A1 00 00 00 00
  vcan0  18F00BFE  [08]  00 F8 86 20 3A 00 00 00
  vcan0  18F000FE  [08]  17 99 AA 82 38 CB B6 8F
  vcan0  18FDE4FE  [08]  20 00 00 00 00 00 00 00
  vcan0  18FDD2FE  [08]  C8 BA 20 00 00 00 00 00
  vcan0  18FDE3FE  [08]  B3 00 00 00 00 00 00 00
  vcan0  1CFEA9FE  [08]  40 38 90 33 00 FA 01 40
  vcan0  1CFE92FE  [08]  1C 80 06 CF 30 11 8A D2
  vcan0  1CFEB1FE  [08]  80 2A AB 95 98 5A C8 53
  vcan0  0CF00AFE  [08]  20 DA 04 9C E4 DE 00 00
  vcan0  18FE6AFE  [07]  89 44 C6 CA CD FD 00
  vcan0  18FDC1FE  [08]  00 5A 84 00 A5 60 00 00
  vcan0  18FEDBFE  [08]  00 04 00 11 00 CE 00 F0
  vcan0  18FEEFFE  [08]  CE DC 00 5A 80 10 E4 23
  vcan0  1CFE93FE  [08]  3E 7D 08 00 00 00 00 00
  vcan0  18FDD5FE  [08]  E0 0F A0 58 D0 39 33 46
  vcan0  1CFEBEFE  [08]  CC 57 58 C2 07 78 00 00
  vcan0  18FEDFFE  [08]  19 28 71 25 BC E9 E3 3D
  vcan0  0CF003FE  [08]  0A 3C BC B6 9B B4 07 9B
  vcan0  0CF004FE  [08]  0F F9 F3 48 19 DF 0F 27
  vcan0  18FE54FE  [08]  38 A2 0E 34 91 C9 5B 95
  vcan0  18FEE3FE  [39]  98 71 A5 98 4D 4F 70 C9 3C F0 D3 46 90 D9 3E 98 DB 00 6E 09 11 B8 CA 14 7B 7A A3 41 90 14 2A F3 24 34 40 46 1F 4B 1B
  vcan0  18F001FE  [08]  02 84 33 67 DE 8D AC FC
  vcan0  18FE94FE  [08]  3A 99 C8 00 00 00 00 00
  vcan0  1CFDC9FE  [08]  38 24 00 00 00 00 00 00
  vcan0  18E0FEFE  [08]  7F 00 BC 59 78 0B 05 B5
  vcan0  18D0FEFE  [08]  AF 00 00 00 00 00 00 00
  vcan0  18FEF1FE  [08]  5A 00 18 85 14 E2 83 77
  vcan0  18FEEDFE  [08]  11 0A 07 00 00 00 00 00
  vcan0  18FE67FE  [08]  96 D8 00 00 00 00 00 00
  vcan0  1CFEBCFE  [16]  B8 8F 77 F8 30 AB 61 29 08 5A 4D EC 03 71 EF F5
  vcan0  18FDE1FE  [08]  94 00 00 00 00 00 00 00
  vcan0  18FE50FE  [08]  3F 88 00 00 00 00 00 00
  vcan0  18FCF5FE  [08]  80 73 A0 4C 8C 00 00 00
  vcan0  18FCF4FE  [08]  80 64 60 13 A0 10 5F 00
  vcan0  18FCF7FE  [08]  80 F7 E0 03 07 00 00 00
  vcan0  18FCF6FE  [08]  00 E8 80 E7 3C 00 00 00
  vcan0  18FD14FE  [08]  01 E4 52 80 CA 00 00 00
  vcan0  18FD15FE  [08]  26 78 5F 74 18 00 00 00
  vcan0  18FD61FE  [08]  5C C6 1A CC 46 73 00 00
  vcan0  18FD64FE  [08]  DB B4 C4 38 B3 08 00 00
  vcan0  08A1FEFE  [09]  DE BE 5A D4 FC 01 A2 70 A8
  vcan0  18FEFAFE  [08]  CE 8D 71 2D 00 00 00 00
  vcan0  18FEFEFE  [08]  A8 00 00 00 00 00 00 00
  vcan0  18FD20FE  [08]  00 6A E0 40 CC BA C5 32
  vcan0  18FD48FE  [08]  4E 07 E8 03 08 00 00 00
  vcan0  18FD49FE  [08]  A0 00 76 02 02 00 00 00
  vcan0  18F021FE  [08]  CC F9 50 34 DE 0B 38 00
  vcan0  10FD52FE  [08]  02 83 E8 00 00 00 00 00
  vcan0  18F00EFE  [08]  AC 2B CD 16 E6 74 01 11
  vcan0  18FDB4FE  [08]  E0 C1 E0 C1 03 03 00 00
  vcan0  18FD66FE  [08]  EA 89 75 20 21 C0 46 00
  vcan0  18FED5FE  [03]  C8 C6 F2
  vcan0  18FDE0FE  [08]  0C C5 0C C6 00 00 00 00
  vcan0  14FD53FE  [08]  80 4C 40 9B A0 0A 00 00
  vcan0  08F02DFE  [07]  64 4B D4 F8 C0 8F 6C
  vcan0  18FCEAFE  [08]  10 EF 00 00 00 00 00 00
  vcan0  0CF029FE  [08]  00 80 97 00 80 11 42 34
  vcan0  18FD09FE  [08]  68 C9 55 B4 00 C4 0E 14
  vcan0  18FCFFFE  [08]  80 BD 00 F0 00 00 00 00
  vcan0  1CFCFAFE  [08]  50 91 40 1F 00 00 00 00
  vcan0  1CFCFEFE  [08]  60 B7 0E 30 A5 C5 00 00
  vcan0  18FCF8FE  [08]  F0 A0 D0 52 90 C9 00 00
  vcan0  18FD1BFE  [08]  72 BB B0 81 A0 F0 02 00
  vcan0  18FCF9FE  [08]  90 65 60 22 50 46 00 00
  vcan0  18FD1CFE  [08]  76 64 70 30 10 A4 17 00
  vcan0  18FD6EFE  [08]  A8 07 68 4C 70 43 EF 00
  vcan0  1CFEB7FE  [10]  68 4B 78 46 BE 5C 20 13 C2 DC
  vcan0  18FEDCFE  [08]  6A E9 70 5D 80 0C 52 44
  vcan0  18FE6DFE  [08]  AF D7 11 09 0F 00 00 00
  vcan0  08FE6EFE  [08]  00 A1 00 82 00 2E 00 02
  vcan0  1CFEB8FE  [22]  6A 73 7C 1D B0 BE 2D 5A 98 C2 09 E4 74 DF 9F 97 BA BB C2 8F 00 26
  vcan0  18FE5DFE  [08]  70 27 B8 D6 65 00 00 00
  vcan0  18FE63FE  [08]  20 50 60 34 21 82 09 00
  vcan0  18FE65FE  [08]  00 39 00 00 00 00 00 00
  vcan0  18FEC8FE  [08]  01 00 7E 4D 7C 36 B4 00
  vcan0  18FEF3FE  [08]  01 00 00 00 11 00 00 00
  vcan0  18FEE7FE  [08]  00 C5 5C F1 70 88 5C 14
  vcan0  18FEE8FE  [08]  00 3C 00 EF 00 89 60 D6
  vcan0  18FEE0FE  [08]  40 A3 7E 24 70 1D C6 12
  vcan0  1CFEB6FE  [08]  00 C4 18 1F CA 99 00 00
  vcan0  1CFEB0FE  [20]  D8 E8 3E 00 60 FA 79 49 30 E6 2A C8 54 AC 41 40 84 83 07 E1
  vcan0  1CFEB4FE  [16]  54 5A 5E 2F A8 D2 93 91 A8 F0 76 D6 64 0C 88 2A
  vcan0  1CFEBBFE  [16]  9C B3 B0 86 54 B3 5B 1A 40 4C 36 1A D4 22 ED 8E
  vcan0  1CFEBAFE  [12]  38 A2 C5 61 E0 B0 AD 29 C8 89 B4 7E
  vcan0  18D5FEFE  [08]  A0 25 1E B8 74 65 D4 36
  vcan0  18FE4BFE  [08]  5D 7A 00 00 00 00 00 00
  vcan0  0C01FEFE  [08]  DD AA E8 7D 1D 82 74 E2
  vcan0  18FEDDFE  [08]  81 70 12 C0 00 00 00 00
  vcan0  1CFE4DFE  [08]  E8 35 00 82 00 00 00 00
  vcan0  18FDE2FE  [08]  65 E6 99 1C EB AE 00 00
  vcan0  18FE8FFE  [08]  CC 41 00 00 00 00 00 00
  vcan0  18FEDAFE  [08]  CC 7E D4 A1 00 00 00 00
  vcan0  18FEC0FE  [08]  29 51 23 81 C9 59 C2 62
  vcan0  1CFE8EFE  [08]  30 A4 40 00 00 00 00 00
  vcan0  18FE53FE  [08]  EF 10 41 F4 59 3D 36 10
  vcan0  18FEFBFE  [08]  A7 03 03 00 00 00 00 00
  vcan0  1CDEFEFE  [08]  0A 66 0C 8B 00 00 00 00
  vcan0  18FEE1FE  [19]  E0 20 60 33 08 00 94 E1 08 05 35 10 3E 8D 98 E1 D5 1E EC
  vcan0  1CFE95FE  [08]  4A A0 4F BF 00 00 00 00
  vcan0  18FEF0FE  [08]  ED 50 2E C8 0C 30 D2 3A
  vcan0  18FDCDFE  [08]  58 50 34 8C 5A 7C 40 00
  vcan0  0CFDCCFE  [08]  5C 0F 0C 3F 80 00 00 00
  vcan0  0CFE75FE  [08]  B0 27 60 00 00 42 E0 00
  vcan0  0CFE71FE  [08]  28 EB D4 03 E4 DA A5 00
  vcan0  1CFEB9FE  [22]  2C 26 2A F0 78 E4 12 B0 7E C0 C6 8C 7E 33 96 3A 3E 19 33 7F 00 7E
  vcan0  0CFE74FE  [08]  D4 5D 01 00 00 00 00 00
  vcan0  0CFE73FE  [08]  E4 E8 00 00 00 00 00 00
  vcan0  1CFEB3FE  [08]  F8 44 8B E8 24 72 BC 02
  vcan0  18FEF2FE  [08]  B0 77 00 6A 00 04 D9 84
  vcan0  18FEE9FE  [08]  24 AC 1E 5F 10 ED 1F 92
  vcan0  1CFDD1FE  [08]  0B 9E 00 00 00 00 00 00
  vcan0  18FEBDFE  [08]  D7 0F 50 0B 1C AD A5 00
  vcan0  0CF00CFE  [08]  78 E6 78 D9 00 00 00 00
  vcan0  1CFEABFE  [08]  11 71 15 DE 00 00 00 00
  vcan0  1CFEC5FE  [08]  BB DE 00 00 00 00 00 00
  vcan0  1CFEC7FE  [08]  34 69 38 A8 95 E4 00 00
  vcan0  18F005FE  [08]  58 10 27 D0 4F 00 B9 00
  vcan0  0CF002FE  [08]  4F 40 81 F0 31 80 CC 69
  vcan0  18FE69FE  [08]  80 28 A0 3B C0 E7 00 B4
  vcan0  18FEA4FE  [08]  A0 A7 E0 DB 80 B4 80 82
  vcan0  18FEEEFE  [08]  E0 2A 80 AC 00 18 54 5C
  vcan0  18FE07FE  [08]  80 D3 00 8F 00 00 00 00
  vcan0  18F00BFE  [08]  00 DB 94 04 B8 06 00 00
  vcan0  18F000FE  [08]  FB 69 98 89 F3 BA 16 19
  vcan0  18FDE4FE  [08]  92 00 00 00 00 00 00 00
  vcan0  18FDD2FE  [08]  BC 05 11 00 00 00 00 00
  vcan0  18FDE3FE  [08]  6C 00 00 00 00 00 00 00
  vcan0  1CFEA9FE  [08]  B0 E5 60 D1 60 D1 49 00
  vcan0  1CFE92FE  [08]  AC 80 F1 CF 94 F7 D8 EE
  vcan0  1CFEB1FE  [08]  F8 43 C6 17 F4 2C 5F 57
  vcan0  0CF00AFE  [08]  1C 39 CC 79 00 DC 00 00
  vcan0  18FE6AFE  [07]  69 D2 40 87 C7 A8 12
  vcan0  18FDC1FE  [08]  00 91 CE 00 32 E0 00 00
  vcan0  18FEDBFE  [08]  00 EB 00 BA 00 53 00 33
  vcan0  18FEEFFE  [08]  B2 DC 55 59 00 13 B6 16
  vcan0  1CFE93FE  [08]  02 2E 04 00 00 00 00 00
  vcan0  18FDD5FE  [08]  40 79 20 9D 80 ED 10 E1
  vcan0  1CFEBEFE  [08]  52 43 20 C2 01 25 00 00
  vcan0  18FEDFFE  [08]  C8 E8 31 F2 9A 5D 34 E6
  vcan0  0CF003FE  [08]  E1 46 44 C0 C3 26 39 0F
  vcan0  0CF004FE  [08]  02 94 F8 B0 E2 65 00 4F
  vcan0  18FE54FE  [08]  0B 96 B2 8B 5C DA 51 A2
  vcan0  18FEE3FE  [39]  70 A6 58 A8 49 15 38 05 0E 18 B3 5A C8 C6 07 30 06 00 AA 28 9D 08 F9 D2 8B 39 7A 02 30 9B 50 C3 F2 09 F4 79 26 0C 34
  vcan0  18F001FE  [08]  2A 39 B9 E0 5A B9 81 30
  vcan0  18FE94FE  [08]  95 AF B0 00 00 00 00 00
  vcan0  1CFDC9FE  [08]  3E BA 00 00 00 00 00 00
  vcan0  18E0FEFE  [08]  19 20 AC A8 60 1D 4B 6B
  vcan0  18D0FEFE  [08]  B1 00 00 00 00 00 00 00
  vcan0  18FEF1FE  [08]  C0 00 AE 7E FE 0B AA 7E
  vcan0  18FEEDFE  [08]  26 A5 55 00 00 00 00 00
  vcan0  18FE67FE  [08]  BA 8B 00 00 00 00 00 00
  vcan0  1CFEBCFE  [16]  D8 AD 1C E6 F0 74 31 83 D8 90 34 3E 1A 0C 5C B9
  vcan0  18FDE1FE  [08]  26 00 00 00 00 00 00 00
  vcan0  18FE50FE  [08]  68 CE 00 00 00 00 00 00
  vcan0  18FCF5FE  [08]  E0 2D A0 3E E8 00 00 00
  vcan0  18FCF4FE  [08]  A0 25 20 38 A0 DE 4D 00
  vcan0  18FCF7FE  [08]  60 F2 40 4D 2F 00 00 00
  vcan0  18FCF6FE  [08]  A0 CC A0 25 B6 00 00 00
  vcan0  18FD14FE  [08]  17 CC 56 F4 D8 00 00 00
  vcan0  18FD15FE  [08]  0C 08 D9 FC B7 00 00 00
