  vcan0  08F02DFE  [07]  04 00 83 CB 41 7B 54
  vcan0  18FCEAFE  [08]  4D ED 00 00 00 00 00 00
  vcan0  0CF029FE  [08]  FA 05 B2 6A 96 55 72 D0
  vcan0  14FD16FE  [08]  2C 9E 54 00 00 00 00 00
  vcan0  1897FEFE  [08]  08 00 00 00 00 00 00 00
  vcan0  1898FEFE  [08]  00 00 00 00 00 00 00 00
  vcan0  08F02CFE  [08]  B2 D5 CB 9E 02 00 00 00
  vcan0  18FD12FE  [08]  DD 0B 30 00 00 00 00 00
  vcan0  18FD13FE  [08]  6E C6 AF 00 00 00 00 00
  vcan0  1896FEFE  [08]  06 00 00 00 00 00 00 00
  vcan0  18FD01FE  [08]  82 F3 44 CF 00 00 00 00
  vcan0  14FCEEFE  [08]  DE EB AB 21 49 8C AB B1
  vcan0  0C99FEFE  [08]  D9 C7 3A 7D 33 8E 49 0A
  vcan0  18FCE8FE  [08]  07 00 00 00 00 00 00 00
  vcan0  18FD09FE  [08]  8A C7 1F E6 87 D0 DD BD
  vcan0  18F02EFE  [08]  D9 29 13 60 00 00 00 00
  vcan0  18FCF1FE  [08]  A4 E6 00 00 00 00 00 00
  vcan0  18FCF3FE  [08]  0A A0 80 02 00 00 00 00
  vcan0  18FCF2FE  [08]  E4 9F 88 A6 65 64 63 44
  vcan0  18FCFFFE  [08]  07 14 3B E6 00 00 00 00
  vcan0  1CFD08FE  [08]  15 71 EE BA 11 E1 00 00
  vcan0  14FCFBFE  [08]  40 06 FC CA 00 00 00 00
  vcan0  1CFCFCFE  [08]  14 4C 40 06 00 00 00 00
  vcan0  0CFD25FE  [08]  D4 8D 01 A2 A9 72 E4 00
  vcan0  0CFD27FE  [08]  E8 A9 04 0A 10 BC 00 00
  vcan0  0CFD29FE  [08]  72 58 E1 D9 A0 D4 30 00
  vcan0  0CFD2BFE  [08]  CF 7F D8 47 7A 98 68 00
  vcan0  0CFD2DFE  [08]  36 05 A8 5A A4 67 D4 00
  vcan0  0CFD2FFE  [08]  4E E6 33 58 3D 69 78 00
  vcan0  0CFD23FE  [08]  EC 98 D4 49 65 16 88 00
  vcan0  18FCF0FE  [08]  A8 00 00 00 00 00 00 00
  vcan0  14FCEFFE  [08]  08 73 00 00 00 00 00 00
  vcan0  14FD00FE  [08]  7F 4E 7F F6 D8 7C 81 00
  vcan0  10FCFDFE  [08]  A1 A5 E8 C3 78 97 65 DE
  vcan0  1CFCFAFE  [08]  40 06 40 06 00 00 00 00
  vcan0  1CFCFEFE  [08]  94 0B 31 AF 75 1F 00 00
  vcan0  18FCE7FE  [08]  F1 59 C2 DE C8 BF 17 00
  vcan0  18FD7CFE  [08]  00 1E 73 25 35 49 03 00
  vcan0  18FCF8FE  [08]  35 81 53 34 87 5A 00 00
  vcan0  18FD1BFE  [08]  AC 4D 51 7C 6B 50 1E 00
  vcan0  18FCF9FE  [08]  79 87 AD DA 59 A9 00 00
  vcan0  18FD1CFE  [08]  DB 1C F4 BD 07 90 06 00
  vcan0  18FD04FE  [08]  29 00 00 00 00 00 00 00
  vcan0  18FD05FE  [08]  48 82 36 00 00 00 00 C0
  vcan0  18FD06FE  [08]  3F 01 00 00 00 00 00 00
  vcan0  18A2FEFE  [08]  95 54 12 36 2D 61 C0 79
  vcan0  18A8FEFE  [08]  01 00 7F 00 00 00 00 00
  vcan0  18FD70FE  [08]  24 08 00 24 09 00 00 00
  vcan0  18FD7FFE  [08]  67 00 00 00 00 00 00 00
  vcan0  18FD94FE  [08]  E6 CA EA 3D B1 44 1F 2A
  vcan0  18FD6FFE  [08]  40 06 B4 AF DD D1 20 00
  vcan0  18FD88FE  [08]  5A BB B6 B6 28 57 7C 1F
  vcan0  18FD87FE  [08]  6D 1E 39 08 6D 4B 71 E9
  vcan0  18FD86FE  [08]  52 A9 24 0F A8 E8 0E 8D
  vcan0  18FD85FE  [08]  03 1B EE 4C 20 F6 13 3D
  vcan0  18FD84FE  [08]  C1 46 8D BB B0 18 8C 8B
  vcan0  14FD81FE  [08]  9D 00 00 00 00 00 00 00
  vcan0  18FD77FE  [08]  F9 5C 7B 08 E8 5A F7 BF
  vcan0  18FD76FE  [08]  B4 87 F5 B1 81 F0 A4 82
  vcan0  18FD75FE  [08]  CB EC FE BD C2 53 52 18
  vcan0  18FD74FE  [08]  C3 86 3F BC 4D F4 EA B8
  vcan0  18FD73FE  [08]  91 B7 EF 63 98 F5 7E 69
  vcan0  18FD72FE  [08]  7E 0C B0 01 E9 24 50 96
  vcan0  18A9FEFE  [08]  00 00 00 00 00 00 00 00
  vcan0  1CFD8AFE  [08]  E5 00 00 00 00 00 87 00
  vcan0  18F01DFE  [08]  46 AD 4B 00 EA 25 01 7B
  vcan0  18FD6EFE  [08]  92 CC A3 3E 92 B4 C2 00
  vcan0  18FD83FE  [08]  05 00 00 00 00 00 00 00
  vcan0  18FD95FE  [08]  00 A9 35 17 00 00 00 00
  vcan0  18FD89FE  [08]  3A 23 00 00 00 00 00 00
  vcan0  1CFEB7FE  [10]  7C 09 CF 55 BD 7D C3 84 5B 85
  vcan0  18FE40FE  [08]  09 04 EA 05 4D 72 B1 40
  vcan0  0CFE41FE  [08]  EB E3 35 44 74 82 19 34
  vcan0  0CFE72FE  [08]  A6 57 01 21 03 00 00 00
  vcan0  1CFE87FE  [08]  45 39 8C 6F FD 58 95 4D
  vcan0  1CFE86FE  [08]  9C 98 0F 6D E0 A1 71 76
  vcan0  1CFE85FE  [08]  0A 8C 23 9A AC 7D CB C2
  vcan0  1CFE84FE  [08]  E8 8C A2 2F 2D B6 7B 57
  vcan0  1CFE83FE  [08]  A5 E7 FA 57 32 4E 35 38
  vcan0  1CFE82FE  [08]  26 07 BE 8A 83 D8 C1 67
  vcan0  1CFE8AFE  [08]  91 73 7F DF 00 00 00 00
  vcan0  1CFE89FE  [08]  D9 D7 36 7C F9 28 62 8A
  vcan0  1CFE88FE  [08]  A6 F7 C3 AA 4F D2 DF 80
  vcan0  18FDC8FE  [08]  0F 00 00 00 00 00 00 00
  vcan0  18FDCAFE  [08]  00 00 00 00 00 00 00 00
  vcan0  18FEDCFE  [08]  40 A4 72 81 C7 71 4B E0
  vcan0  1CFEA5FE  [08]  7E 02 95 62 93 00 00 00
  vcan0  18FEA6FE  [08]  5D 3B 91 1F 8E 92 04 FA
  vcan0  18FDD0FE  [08]  10 88 F4 1B ED 5A E0 07
  vcan0  18FEF6FE  [08]  78 C8 45 12 57 82 5F 4A
  vcan0  18FE6DFE  [08]  60 9F 25 03 75 00 00 00
  vcan0  08FE6EFE  [08]  9F A1 84 B9 2E 7F 01 A4
  vcan0  18F008FE  [08]  C5 A5 36 00 00 00 00 00
  vcan0  18FEE5FE  [08]  58 52 55 A2 EE 20 6A 90
  vcan0  0CFDE6FE  [08]  00 00 01 00 00 00 00 00
  vcan0  1CFEB8FE  [22]  E8 DE 94 C2 25 2D 51 D3 BE 02 0A D5 F4 22 43 4F 7A 06 16 72 E6 72
  vcan0  1CFE8BFE  [08]  C6 B2 F6 0C A2 91 2F 34
  vcan0  1CFE81FE  [08]  4F 94 27 00 32 1A 14 76
  vcan0  1CFEB2FE  [08]  9A CD DB F8 C1 6A D1 23
  vcan0  18FE55FE  [08]  8E C9 00 00 00 00 00 00
  vcan0  1CFEAFFE  [08]  32 6B D3 FA A1 E2 7B 65
  vcan0  18FD9CFE  [08]  8B 9F 9A 65 13 0E E9 62
  vcan0  18FD9DFE  [08]  00 D4 0C C8 9B 42 86 1F
  vcan0  18FDA4FE  [08]  FF 00 60 2F E5 3B 02 00
  vcan0  10FDA2FE  [08]  18 10 B9 7F F4 00 D2 44
  vcan0  18FDAAFE  [08]  60 67 94 9C 18 BF E7 52
  vcan0  10FDA3FE  [08]  40 06 68 0A 40 06 C6 7A
  vcan0  18FDA5FE  [08]  B6 5F DB DA 99 F0 FF 00
  vcan0  18FD9BFE  [08]  E1 CA E4 1E 04 03 00 00
  vcan0  0CF01CFE  [08]  A0 53 DD C9 00 00 00 00
  vcan0  10F01AFE  [08]  66 54 F5 E4 64 62 38 6E
  vcan0  0CF019FE  [08]  26 DF ED 5B 00 29 6D B4
  vcan0  0CF018FE  [08]  1D D4 D5 04 10 A1 F6 B2
  vcan0  0CF017FE  [08]  58 66 3B 55 13 35 12 AF
  vcan0  0CF016FE  [08]  02 17 D3 D9 D3 A8 00 00
  vcan0  0CF015FE  [08]  B6 59 F0 D3 F1 57 03 00
  vcan0  0CF014FE  [08]  9C 7B 8E 63 75 08 00 00
  vcan0  0C02FEFE  [08]  C1 05 AF B7 D3 B4 00 00
  vcan0  18FEC9FE  [08]  01 00 11 00 1F 77 00 00
  vcan0  1803FEFE  [08]  11 05 FF 74 E7 FB B5 00
  vcan0  18FEC4FE  [08]  10 51 10 04 65 F9 85 C5
  vcan0  0CFEC6FE  [08]  05 A1 08 6F 78 95 94 B9
  vcan0  18E2FEFE  [08]  01 01 00 00 00 00 00 00
  vcan0  18FE5DFE  [08]  FD CC 79 37 E5 00 00 00
  vcan0  0CFE5FFE  [08]  02 C7 25 04 28 09 A4 B2
  vcan0  18FE61FE  [08]  C6 94 44 25 3D EA 04 F6
  vcan0  18FE63FE  [08]  CF 07 D9 7E 28 BA 7B 00
  vcan0  18FE65FE  [08]  F0 E7 00 00 00 00 00 00
  vcan0  18E1FEFE  [08]  01 00 00 00 00 00 00 00
  vcan0  18FEC8FE  [08]  01 00 16 50 C3 7B 25 00
  vcan0  0CFE60FE  [08]  CE 1C 2A 38 AA FA 09 94
  vcan0  18FE62FE  [08]  06 10 05 45 00 00 00 00
  vcan0  18FE64FE  [08]  44 00 15 11 05 05 00 00
  vcan0  18DBFEFE  [08]  31 0C 52 00 00 00 00 00
  vcan0  18DAFEFE  [08]  1E 9E 00 00 00 00 00 00
  vcan0  18EDFEFE  [08]  04 42 00 00 00 00 00 00
  vcan0  18E4FEFE  [08]  21 76 33 C6 4B 90 B4 00
  vcan0  18E5FEFE  [08]  00 09 40 14 0F D2 FE C3
  vcan0  18FE5CFE  [08]  DA 43 92 B8 00 00 00 00
  vcan0  18FE5EFE  [08]  C8 DE A4 E4 98 00 00 00
  vcan0  18FDB8FE  [08]  1B D8 56 21 D7 05 7B 08
  vcan0  0C04FEFE  [08]  5F 4A 01 00 00 00 00 71
  vcan0  18FEFFFE  [08]  01 00 00 00 00 00 00 00
  vcan0  18FEEAFE  [08]  10 40 35 DD 55 EF 22 00
  vcan0  18FE52FE  [08]  F8 2E 95 5C 00 00 00 00
  vcan0  1CFE8DFE  [08]  3F 80 9D 0C 44 53 F3 79
  vcan0  18FEF3FE  [08]  29 00 00 00 24 00 00 00
  vcan0  18FEECFE  [08]  55 00 00 00 00 00 00 00
  vcan0  18FEE7FE  [08]  24 46 DB 08 06 E7 EA 08
  vcan0  18FE68FE  [08]  79 07 89 00 00 00 00 00
  vcan0  18FEE8FE  [08]  97 C1 8B 32 1F 73 23 D3
  vcan0  18FEC1FE  [08]  BB D2 25 00 7C 61 1E 00
  vcan0  18F009FE  [08]  FE E0 61 94 16 AB 74 8F
  vcan0  18FE4FFE  [08]  37 23 00 00 00 00 00 00
  vcan0  18FEE0FE  [08]  B1 18 73 6B 7D DD 97 AF
  vcan0  1CFEB6FE  [08]  91 39 28 82 5E AD 00 00
  vcan0  1CFEB0FE  [20]  5B DA 6E 21 DE 8B C9 30 F9 CC DA 8E 0D 99 BC 4D 5E 09 76 98
  vcan0  1CFEB4FE  [16]  4E E5 72 6C 58 B7 08 4B 40 48 B5 C6 A2 A8 9F 57
  vcan0  1CFEB5FE  [08]  01 5D 44 F5 89 E9 D8 BE
  vcan0  18FDC0FE  [08]  04 37 02 00 00 00 00 00
  vcan0  18FDBAFE  [08]  03 61 00 00 00 00 00 00
  vcan0  18FDBBFE  [08]  F1 23 0A 15 10 D2 00 12
  vcan0  18FDBCFE  [15]  1A 06 10 89 5E F2 9C ED 23 72 26 7A E6 00 00
  vcan0  18FDBDFE  [08]  A0 F3 31 92 00 00 00 00
  vcan0  18FDBFFE  [08]  7C 00 00 00 00 00 00 00
  vcan0  18FDBEFE  [04]  40 B2 B6 6C
  vcan0  18AEFEFE  [08]  11 70 00 00 00 00 00 00
  vcan0  18FDB9FE  [08]  00 40 00 00 00 00 00 00
  vcan0  1CFE7AFE  [08]  69 5C DB E2 6F 6C 00 00
  vcan0  1CFE79FE  [08]  9E 83 17 72 12 3C 00 00
  vcan0  1CFE78FE  [08]  B1 03 60 20 49 00 00 00
  vcan0  18FEF4FE  [08]  33 E2 6D AA 36 5A A3 C0
  vcan0  1CFEBBFE  [16]  E7 D4 35 07 B5 B6 9F 7B 96 14 9C 17 65 77 A7 78
  vcan0  1CFEBAFE  [12]  61 82 A0 12 82 CB D1 E3 83 3A A1 D2
  vcan0  18D5FEFE  [08]  AE 79 8C C0 D9 46 18 7E
  vcan0  18FEE6FE  [08]  D9 1F A1 C4 AE D3 C3 0B
  vcan0  18FE96FE  [08]  AC 97 25 D5 30 B6 E3 9F
  vcan0  0CFE6CFE  [08]  86 C0 35 35 06 F9 F8 B1
  vcan0  18FDD3FE  [08]  65 9A 15 7D 0B F2 1D D5
  vcan0  18FE97FE  [08]  E8 5C 34 B3 11 36 63 80
  vcan0  18FE98FE  [08]  68 D5 AD 2B 78 C0 21 0B
  vcan0  18FE99FE  [08]  76 E4 AA 90 A6 6D C8 90
  vcan0  18FE9AFE  [08]  49 31 E9 5F 77 64 10 E6
  vcan0  1CFE9BFE  [08]  DA E3 E2 04 4F 4B F4 00
  vcan0  18FE4BFE  [08]  65 37 00 00 00 00 00 00
  vcan0  18FEE2FE  [08]  78 2D 23 15 00 00 00 00
  vcan0  18FEDDFE  [08]  FA BA ED 00 00 00 00 00
  vcan0  1CFE4DFE  [08]  86 94 30 BA 00 00 00 00
  vcan0  18FDE2FE  [08]  10 A2 6B 17 F4 16 00 00
  vcan0  18FE8FFE  [08]  84 F2 00 00 00 00 00 00
  vcan0  18FEDAFE  [08]  4B 20 67 E3 00 00 00 00
  vcan0  18FEE4FE  [08]  89 80 2E 03 60 00 A3 0B
  vcan0  18FEC0FE  [08]  65 15 C6 46 A4 E4 37 96
  vcan0  1CFE8EFE  [08]  92 A0 3D 00 00 00 00 00
  vcan0  18FE53FE  [08]  BF 47 8D B1 8C 89 FA 7B
  vcan0  18FEFBFE  [08]  3F 98 03 00 00 00 00 00
  vcan0  1CDEFEFE  [08]  04 C4 05 E7 00 00 00 00
  vcan0  18FEE1FE  [19]  5E 40 0A FA D3 2D 5E 70 C2 2E 6B ED 81 3A BB 9C C2 54 43
  vcan0  1CFE95FE  [08]  B7 A4 54 22 00 00 00 00
  vcan0  18FEF0FE  [08]  27 47 13 C5 7C 13 40 3C
  vcan0  18FDCDFE  [08]  54 40 7B 77 EC 48 40 00
  vcan0  18FDCBFE  [08]  2B 01 0E FF 00 00 00 00
  vcan0  18FDC7FE  [08]  2C 00 EF 10 00 00 00 00
  vcan0  0CFDCCFE  [08]  95 F3 5A A7 15 00 00 00
  vcan0  18FDE5FE  [08]  0C 60 41 E8 BF A3 C5 25
  vcan0  18FE4CFE  [08]  52 00 00 82 00 00 00 FA
  vcan0  18FDDCFE  [08]  A1 00 00 00 00 00 00 00
  vcan0  18FE9CFE  [08]  51 E0 A1 66 8B DE 00 00
  vcan0  18FE9DFE  [08]  30 8D A4 C8 AC 64 6D AE
  vcan0  18FE9EFE  [08]  C5 AD BF 39 85 6C EB 09
  vcan0  10FE76FE  [08]  9F 23 2F 00 00 00 00 00
  vcan0  0CFE75FE  [08]  9D AB 00 00 00 B8 1A 00
  vcan0  0CFE71FE  [08]  80 40 76 09 E8 83 10 00
  vcan0  1CFEB9FE  [22]  34 1A 77 8A F4 DB B4 8D C8 1F 56 2B 34 AD 44 E6 0D 9B 22 A2 81 10
  vcan0  0CFE74FE  [08]  81 5C 04 00 00 00 00 00
  vcan0  0CF00DFE  [08]  E1 3E 2F 2F 90 00 00 00
  vcan0  0CFE73FE  [08]  AF 91 00 00 00 00 00 00
  vcan0  1CFEB3FE  [08]  DF 11 E4 E6 16 EF 28 00
  vcan0  18FEF2FE  [08]  EC 08 F0 D0 2F F2 01 59
  vcan0  18FEE9FE  [08]  A5 3D E7 1A 66 BB 08 78
  vcan0  1CFDDFFE  [08]  02 00 00 00 00 00 00 00
  vcan0  1CFDD1FE  [08]  0F 0B 00 00 00 00 00 00
  vcan0  18FE5BFE  [08]  CC 00 00 00 00 00 00 00
  vcan0  10F007FE  [08]  5E 00 00 00 00 00 00 00
  vcan0  1CFE91FE  [08]  0E 00 00 00 00 00 00 00
  vcan0  18FEBDFE  [08]  0D 08 A2 BD C1 12 B3 00
  vcan0  18FE90FE  [33]  73 3E C0 9E C0 D0 9A 1F 26 AF 67 93 41 E2 01 63 1B 7A 8C B1 21 01 7F C2 35 14 43 96 F0 D1 26 DA 6B
  vcan0  18FE4AFE  [08]  14 34 70 A7 FB 0B 00 00
  vcan0  1CFEC3FE  [08]  0D 25 00 00 00 00 00 00
  vcan0  1CFEC5FE  [08]  EB F1 00 00 00 00 00 00
  vcan0  1CFEC7FE  [08]  D8 C3 15 6A CE 3D 00 00
  vcan0  0CF002FE  [08]  50 8D D7 F7 29 75 E5 33
  vcan0  18FE69FE  [08]  68 48 CA 99 22 10 60 5E
  vcan0  18FEA4FE  [08]  27 5F 7F 31 59 C6 64 8F
  vcan0  18FEEEFE  [08]  9A 64 2A 52 84 1F BE C9
  vcan0  18FE07FE  [08]  C9 50 C3 CD 00 00 00 00
  vcan0  18F00BFE  [08]  34 CB 9C 2F 40 03 00 00
  vcan0  1CFEC2FE  [08]  01 00 00 00 00 00 00 00
  vcan0  18F000FE  [08]  60 88 9C 06 5B B6 23 93
  vcan0  1CFE9FFE  [08]  FA E8 3D 58 E9 8A 2A 63
  vcan0  18FEA0FE  [08]  4C 3E 73 AB 0E 5A 67 B1
  vcan0  1CFEA1FE  [08]  97 E6 73 B6 3D 1A C6 6F
  vcan0  1CFEA2FE  [08]  CF DE 8C B0 DB EA 0C 1D
  vcan0  1CFEA3FE  [08]  AC B6 46 CB 61 56 9F 7F
  vcan0  18FDE4FE  [08]  52 00 00 00 00 00 00 00
  vcan0  18FDD2FE  [08]  C1 4C 2D 00 00 00 00 00
  vcan0  18FDE3FE  [08]  DF 00 00 00 00 00 00 00
  vcan0  1CFEA9FE  [08]  03 39 58 BA F4 C9 4D C0
  vcan0  0CFDDBFE  [08]  EF 00 6D F2 F7 1E 84 00
  vcan0  0CFDD9FE  [08]  73 E3 89 91 36 8D 7C 00
  vcan0  0CFDD7FE  [08]  45 21 98 8A AD F9 90 00
  vcan0  1CFE92FE  [08]  5B 43 24 1A B1 16 A7 F7
  vcan0  1CFEB1FE  [08]  11 0F D2 E4 87 86 D0 43
  vcan0  0CF00AFE  [08]  E5 99 A0 6E 4E 4C 00 00
  vcan0  18FE6AFE  [07]  42 16 C0 0A 60 E2 0E
  vcan0  18FDC1FE  [08]  C4 CB B8 1D A6 63 00 00
  vcan0  18FEDBFE  [08]  B2 AF 2A 64 10 32 4D 5E
  vcan0  18FEEFFE  [08]  A3 87 73 44 45 07 0E 68
  vcan0  1CFE93FE  [08]  8D 29 08 00 00 00 00 00
  vcan0  18FDD5FE  [08]  5F B1 3F 59 AB 94 01 4B
  vcan0  1CFEBEFE  [08]  69 39 BA C7 0B EA 00 00
  vcan0  0CF003FE  [08]  03 92 A5 BF B9 0B 43 62
  vcan0  18FDC5FE  [08]  D2 27 6C 4F 00 00 00 00
  vcan0  18FE54FE  [08]  8B 0B 95 94 BC 4F 51 71
  vcan0  18FEE3FE  [39]  B5 2D 0A 2D 0E A4 42 37 49 92 31 36 C8 B5 A6 25 E6 C9 AB B7 A5 26 AF C2 D2 49 18 D7 27 81 2D B3 63 AC 01 01 01 01 01
  vcan0  18FDC4FE  [08]  60 06 56 00 00 00 00 00
  vcan0  1CFEACFE  [08]  80 73 83 9A 99 A1 5C 08
  vcan0  18FEADFE  [08]  CB 6D 75 F4 0C DC 84 AC
  vcan0  18FEBFFE  [08]  31 09 30 20 4A 62 42 47
  vcan0  18F001FE  [08]  93 1E 0F 11 73 B5 86 7C
  vcan0  18F006FE  [08]  44 47 36 08 00 00 00 00
  vcan0  18FE94FE  [08]  F0 09 1B 00 00 00 00 00
  vcan0  18FE6BFE  [08]  66 AE 00 00 00 00 00 00
  vcan0  18FEFCFE  [08]  A5 73 86 EE BC B1 F1 00
  vcan0  18FDC6FE  [08]  0C 03 00 00 00 00 00 00
  vcan0  18FE70FE  [08]  8B 17 FA 0B 00 00 00 00
  vcan0  18CFFEFE  [08]  36 A7 B3 F8 E4 39 A2 22
  vcan0  1CFE80FE  [08]  30 C9 A9 87 00 00 00 00
  vcan0  1CFE7FFE  [08]  59 2D EF 1C 47 6F B4 8E
  vcan0  1CFE7EFE  [08]  53 9A ED 0F 2B 18 8C 8F
  vcan0  1CFE7DFE  [08]  F5 65 E9 C4 51 71 53 E9
  vcan0  1CFE7CFE  [08]  B5 24 9D 4D 9A 28 A7 B3
  vcan0  1CFE7BFE  [08]  25 A8 37 8E 2B ED 4A 33
  vcan0  1CFDC9FE  [08]  AC 7F 00 00 00 00 00 00
  vcan0  18FDD4FE  [08]  06 02 02 00 00 00 00 00
  vcan0  18E0FEFE  [08]  B7 1C 1C 98 94 F8 70 00
  vcan0  18D0FEFE  [08]  95 00 00 00 00 00 00 00
  vcan0  18FEEBFE  [08]  5B 7E C9 1B 00 00 00 00
  vcan0  18FEF1FE  [08]  B8 77 ED 2A 6E 43 00 20
  vcan0  18FEEDFE  [08]  4A D1 0D 00 00 00 00 00
  vcan0  18FE67FE  [08]  F6 D0 00 00 00 00 00 00
  vcan0  1CFEBCFE  [16]  E4 AA 8C 52 42 BD C1 9E E7 49 FD 24 02 6F C1 89
  vcan0  18FDE1FE  [08]  71 00 00 00 00 00 00 00
  vcan0  18FE50FE  [08]  BD 97 00 00 00 00 00 00
  vcan0  18FD07FE  [08]  26 76 68 00 00 00 00 00
  vcan0  1CFD18FE  [08]  75 84 05 4F 42 E1 54 1F
  vcan0  00F02BFE  [08]  02 00 00 00 00 00 00 98
  vcan0  18FCF5FE  [08]  DA 22 AD EF 1F 00 00 00
  vcan0  18FCF4FE  [08]  70 95 28 01 98 ED BD 00
  vcan0  18FCF7FE  [08]  93 81 A6 8F B0 00 00 00
  vcan0  18FCF6FE  [08]  AE DF D2 A2 9F 00 00 00
  vcan0  0CFD26FE  [08]  2D FB 0E 4C 50 7E 5E F6
  vcan0  0CFD28FE  [08]  FF 1C D1 B4 A0 D9 B5 A4
  vcan0  0CFD2AFE  [08]  AB 8C AF DF B0 3C 14 E3
  vcan0  0CFD2CFE  [08]  61 E7 38 2F F0 11 75 76
  vcan0  0CFD2EFE  [08]  2A 22 95 E1 00 82 52 2A
  vcan0  0CFD30FE  [08]  19 82 9D EC 70 8E 95 C7
  vcan0  0CFD24FE  [08]  02 F9 10 FE 10 49 91 E2
  vcan0  14FD17FE  [08]  3F BE 36 00 00 00 00 00
  vcan0  18FD14FE  [08]  01 4D 27 7C 66 00 00 00
  vcan0  18FD15FE  [08]  10 66 C9 0F 62 00 00 00
  vcan0  18FD1DFE  [08]  88 51 F7 59 00 00 00 00
  vcan0  18FD1EFE  [08]  E9 D5 F0 4E 00 00 00 00
  vcan0  18FCEDFE  [08]  37 CE E7 2C 00 00 00 00
  vcan0  18FD45FE  [08]  A6 01 25 CA CA 44 5E 32
  vcan0  0CFD0AFE  [08]  DA 64 2C 61 00 00 00 00
  vcan0  0CFD0BFE  [08]  6F 21 3B 02 0F 00 00 00
  vcan0  0CFD0CFE  [08]  C3 74 1B ED 00 00 00 00
  vcan0  0CFD0DFE  [08]  AC 5F B2 00 B6 00 00 00
  vcan0  18FD44FE  [08]  A5 6E 08 40 06 00 00 00
  vcan0  0095FEFE  [08]  68 F8 2E 53 00 00 00 00
  vcan0  18FD1AFE  [08]  5E A4 CE 4C 00 00 00 00
  vcan0  18FD46FE  [08]  BE DB 18 22 A8 87 C3 36
  vcan0  18FE56FE  [08]  00 17 4E 7B FF B4 F9 01
  vcan0  0CFD0EFE  [08]  44 2C 9F 5A 00 00 00 00
  vcan0  0CFD0FFE  [08]  CC 24 3B 01 75 00 00 00
  vcan0  0CFD10FE  [08]  C3 EC 0F 15 00 00 00 00
  vcan0  0CFD11FE  [08]  B1 58 97 02 66 00 00 00
  vcan0  0094FEFE  [08]  9D C5 59 91 00 00 00 00
  vcan0  18FCE9FE  [08]  E1 00 00 00 00 00 00 00
  vcan0  0CF02AFE  [08]  D3 AA F7 93 98 3C 1C A3
  vcan0  18FCEBFE  [08]  09 00 00 00 00 00 00 00
  vcan0  18FCECFE  [08]  01 00 00 00 00 00 00 00
  vcan0  00FD37FE  [08]  7A F0 8E D8 26 00 00 00
  vcan0  18FD34FE  [08]  19 E3 05 39 07 0E 08 04
  vcan0  18FD35FE  [08]  0A 23 2C F7 1D 10 96 14
  vcan0  18FD33FE  [08]  BC A1 6E 21 69 02 97 00
  vcan0  18FD36FE  [08]  43 03 E8 1E 09 01 00 00
  vcan0  18FD38FE  [08]  1B AA 16 8B 65 08 00 00
  vcan0  18FD39FE  [08]  F2 90 17 00 00 00 00 00
  vcan0  00FD3AFE  [08]  4C 1E 05 75 00 00 00 00
  vcan0  0CF027FE  [08]  3B 4D 09 AD EC 00 00 00
  vcan0  18FD3BFE  [08]  F4 DB 7A 0F 10 31 5C 65
  vcan0  0CF026FE  [08]  A8 53 08 34 B1 C0 00 00
  vcan0  0CF028FE  [08]  D1 03 19 0B 08 01 00 00
  vcan0  18FD21FE  [08]  36 86 84 2D 44 BB 13 22
  vcan0  18FD1FFE  [08]  65 E9 31 64 1E 8F 8D 56
  vcan0  18FD3DFE  [08]  92 6A DC FA 1C 11 39 15
  vcan0  18FD3CFE  [08]  80 C7 1D E7 BC 03 4F 00
  vcan0  14FD3EFE  [08]  29 65 0E AA 77 02 00 00
  vcan0  18FD3FFE  [08]  D6 F2 17 00 00 00 00 00
  vcan0  18FD40FE  [08]  74 97 A5 F2 00 00 00 00
  vcan0  0CF024FE  [08]  CA 77 07 0C 45 00 00 00
  vcan0  18FD41FE  [08]  0C 5C D5 29 48 0F 64 6B
  vcan0  0CF023FE  [08]  A2 7D 07 93 82 F5 00 00
  vcan0  0CF025FE  [08]  6D D6 11 01 1B 03 00 00
  vcan0  18FD22FE  [08]  A3 EB 37 BD B7 13 6B 16
  vcan0  18FD60FE  [08]  77 93 0D D4 44 00 00 00
  vcan0  18FD61FE  [08]  60 FA F6 B9 5E A5 00 00
  vcan0  18FD62FE  [08]  F9 00 00 00 00 00 00 00
  vcan0  18FD63FE  [08]  1B F6 9A 32 00 00 00 00
  vcan0  18FD64FE  [08]  06 B9 34 38 BF D6 00 00
  vcan0  18A0FEFE  [08]  1C 9C 00 00 00 00 00 00
  vcan0  08A1FEFE  [09]  8A 73 B6 16 32 F0 B9 FC 39
  vcan0  18FE66FE  [08]  01 00 00 00 00 00 00 00
  vcan0  0CFDDAFE  [08]  E4 C4 68 DA 30 42 9B 50
  vcan0  0CFDD8FE  [08]  51 8C C9 33 60 86 DB 10
  vcan0  0CFDD6FE  [08]  02 CF EB DA F0 5B E3 93
  vcan0  18FEFAFE  [08]  DF 7B 15 19 00 00 00 00
  vcan0  18FEFEFE  [08]  4F 00 00 00 00 00 00 00
  vcan0  18FD20FE  [08]  C1 50 D7 24 38 42 70 38
  vcan0  18A3FEFE  [08]  9E 9D E0 25 61 25 00 00
  vcan0  1CFD47FE  [08]  00 00 00 00 00 00 00 00
  vcan0  189BFEFE  [08]  25 3E 11 89 00 00 00 00
  vcan0  18FD48FE  [08]  03 00 3D 02 01 00 00 00
  vcan0  18FD49FE  [08]  22 07 C1 04 04 00 00 00
  vcan0  18F021FE  [08]  A7 76 87 00 58 79 EC 00
  vcan0  10FD52FE  [08]  00 A4 8B 00 00 00 00 00
  vcan0  189CFEFE  [08]  D3 F9 F0 CA E2 F9 8A BA
  vcan0  189DFEFE  [08]  EA 1B D2 65 63 72 C0 39
  vcan0  0C08FEFE  [08]  CF 13 A8 62 56 CC 2B 27
  vcan0  18FD9FFE  [08]  58 8E 5F 9F CC 23 BF CB
  vcan0  18FD6DFE  [08]  54 2C 65 F7 A8 42 6A 31
  vcan0  18FDA1FE  [08]  7B BE 5E 7B 6F 49 07 0A
  vcan0  18FD65FE  [08]  E6 0E 07 40 06 D7 00 00
  vcan0  18FD8CFE  [08]  3F A2 EE 52 00 00 00 00
  vcan0  18FD98FE  [36]  57 DF F2 C9 1A AA F5 07 87 55 EE E3 79 A2 1E 05 EF 51 95 0F 21 0C 41 74 4A D6 75 F0 A1 FA EA 3A 89 14 3F 24
  vcan0  18F00EFE  [08]  8D 18 7F 28 56 67 10 0E
  vcan0  18FDB4FE  [08]  AC 09 44 0D 07 0E 00 00
  vcan0  1CDCFEFE  [08]  2B DA 00 00 00 00 00 00
  vcan0  1CDDFEFE  [08]  38 AA 00 00 00 00 00 00
  vcan0  1CFEA7FE  [08]  B7 DB 1F F5 B0 00 00 00
  vcan0  0CD1FEFE  [08]  C3 E0 6C 3D 2C 60 19 E6
  vcan0  0CFE57FE  [08]  25 EB CA 34 00 00 00 00
  vcan0  18A4FEFE  [12]  74 DE 20 30 43 DC 9A F3 64 0A 15 E2
  vcan0  18FDB2FE  [08]  0E 47 12 E8 88 94 69 1E
  vcan0  18F00FFE  [08]  3D 7A 1C 47 88 62 0A 01
  vcan0  18FDB3FE  [08]  88 DB 66 A0 08 0B 00 00
  vcan0  18FD7BFE  [08]  04 04 55 5B F5 B3 40 06
  vcan0  18FD79FE  [32]  B2 B8 E7 12 5D FE A4 40 17 07 25 B8 35 40 1F 43 CB 0D 9A 95 60 1B F5 14 38 03 CD AB A6 A1 6F 39
  vcan0  18FD9EFE  [08]  41 21 08 8C 37 4C 0B 11
  vcan0  18FD6CFE  [08]  A2 35 EE 98 58 E3 56 49
  vcan0  18FDA0FE  [08]  64 0F B5 ED E1 BE 1A 0A
  vcan0  18FD8BFE  [08]  E2 90 BC 04 00 00 00 00
  vcan0  18FD99FE  [36]  0A 57 93 2A EE 9D 78 F7 3E 64 97 05 4A 32 B0 2D 3C 2E 95 4A 62 6A 48 C6 EC 0D 43 32 9B 30 27 FA 38 33 CB 58
  vcan0  18F010FE  [08]  8E 71 39 20 72 01 14 18
  vcan0  18FDB1FE  [08]  1A A3 FC 67 0E 12 00 00
  vcan0  18FDAFFE  [08]  08 28 6A C1 FF 40 F5 2F
  vcan0  18F011FE  [08]  36 A8 18 F6 B8 3D 1E 07
  vcan0  18FDB0FE  [08]  D2 63 7F BD 11 1C 00 00
  vcan0  18FD7AFE  [08]  04 04 86 5D 04 2F 40 06
  vcan0  18FD78FE  [32]  F9 B5 E2 39 5E 27 D6 25 1E 52 CC 5F 76 B2 1A DA DA F1 A4 37 E6 59 54 BA 43 C0 5E 53 61 5A 21 D1
  vcan0  0CFD92FE  [08]  1B 4D B0 7B 14 08 00 76
  vcan0  18FD66FE  [08]  2F C9 99 D8 EE AA B0 00
  vcan0  14FD68FE  [08]  B8 AD 5B A5 61 6F 00 00
  vcan0  1807FEFE  [08]  F4 36 50 C1 BF E2 F6 00
  vcan0  18FE58FE  [08]  D1 91 0D 4D 3D 8C AC C6
  vcan0  18FE59FE  [08]  BE 9C 01 5F A2 C5 82 1A
  vcan0  0CD2FEFE  [08]  0E 90 E5 8C A9 2A 1E EA
  vcan0  0CFE5AFE  [08]  E7 08 8C 65 8B C7 A9 D4
  vcan0  18FED5FE  [03]  C3 7B A8
  vcan0  1CFE77FE  [08]  36 4F EC 35 C0 1B 00 00
  vcan0  18FDE0FE  [08]  59 71 F4 46 00 00 00 00
  vcan0  18FECFFE  [22]  43 37 D0 25 94 2D 11 80 73 70 D4 63 DF 04 1F 5D 50 2A D5 3C 9B 49
  vcan0  18FECDFE  [13]  CB 89 EC 6F A8 06 75 32 A8 F0 F3 06 27
  vcan0  18FECCFE  [00] 
  vcan0  18FDB7FE  [13]  81 CC D6 99 6A 00 00 00 00 00 00 00 00
  vcan0  18FDB6FE  [12]  A9 C0 E3 6F 1A AC 42 80 52 84 86 51
  vcan0  18FDB5FE  [22]  06 63 D3 5C 9A 11 EF 0E CF 26 B9 BF 08 66 A1 A2 9A E8 93 D7 C5 3C
  vcan0  18C3FEFE  [08]  68 0D 00 00 00 2D 87 65
  vcan0  18C1FEFE  [08]  E4 9A BE 9C 54 67 FA 51
  vcan0  18C2FEFE  [11]  42 53 F2 31 1B 5C 01 A8 BA 0D 3B
  vcan0  18FECBFE  [22]  C8 8F 50 3C 83 F1 DA 19 CD 0B CB C1 1E 9F F6 26 39 41 F6 1D 7E 9E
  vcan0  18D3FEFE  [20]  6D A4 07 33 E3 44 FF 7C B6 26 B9 0E 9C 1C 37 B1 18 39 47 EC
  vcan0  18D6FEFE  [01]  00
  vcan0  18D7FEFE  [02]  00 00
  vcan0  18DFFEFE  [08]  71 A7 C0 F1 20 F0 00 00
  vcan0  18FED4FE  [22]  58 6D 15 8E B4 D9 CE B8 E5 A1 5B 27 AB EA 30 D4 1B BC 08 D2 07 47
  vcan0  18FED3FE  [00] 
  vcan0  18FED2FE  [08]  C9 C2 62 4A D3 65 1F 62
  vcan0  18FECAFE  [22]  18 EB 43 96 DB 67 D4 27 4C 89 7F E0 FB 86 0D 3F 5A B0 3D 42 31 B5
  vcan0  18FDF7FE  [08]  DF 3B 37 49 00 00 01 00
  vcan0  18FDF8FE  [08]  63 D3 8A C1 C9 C3 48 81
  vcan0  18FDEDFE  [08]  BE 7B 09 CD A8 9D B3 DE
  vcan0  18FDEEFE  [08]  B1 9E 3D D4 01 00 01 00
  vcan0  18FDEFFE  [08]  04 F5 12 68 2F B7 2E 6F
  vcan0  18FDF0FE  [08]  FE 13 B2 0C 3A 01 96 59
  vcan0  18FDF1FE  [08]  4C 35 15 73 03 00 02 00
  vcan0  18FDF2FE  [08]  0C 13 42 B6 02 85 83 AA
  vcan0  18FDF3FE  [08]  EF 68 7B 48 3C 01 37 6F
  vcan0  18FDF4FE  [08]  CE 67 71 5D 01 00 03 00
  vcan0  18FDF5FE  [08]  E7 33 7F 20 B9 3A F8 91
  vcan0  18FDF6FE  [08]  46 1F 8E E5 A4 00 C4 E3
  vcan0  18FDF9FE  [08]  77 34 B4 E9 2C 01 64 F0
  vcan0  18FE04FE  [08]  AB 9C 39 84 03 00 00 00
  vcan0  18FE05FE  [08]  1B BF 57 9D FB 26 E7 B2
  vcan0  18FDFAFE  [08]  2E ED C3 E5 8A 52 95 D6
  vcan0  18FDFBFE  [08]  83 E0 9F F2 01 00 00 00
  vcan0  18FDFCFE  [08]  42 4F CA 9F 5D E3 D4 1F
  vcan0  18FDFDFE  [08]  3A 15 BB D9 1F 01 4D 24
  vcan0  18FDFEFE  [08]  83 27 24 2F 00 00 00 00
  vcan0  18FDFFFE  [08]  2C 7F 26 CA FD 1D 2F C1
  vcan0  18FE00FE  [08]  3B 7B 07 EE BD 00 BF 23
  vcan0  18FE01FE  [08]  7A FC 5E 0A 01 00 03 00
  vcan0  18FE02FE  [08]  FB 9F 32 CE 15 4A C8 95
  vcan0  18FE03FE  [08]  1B 99 EE 44 B8 01 D8 D3
  vcan0  18FE06FE  [08]  47 95 9B 18 CB 01 E1 31
  vcan0  18FDE7FE  [08]  89 01 D8 00 00 00 00 00
  vcan0  18FDE9FE  [08]  41 89 E1 E1 C4 00 00 00
  vcan0  18FDEAFE  [08]  8C F6 A4 BE 91 00 00 00
  vcan0  18FDEBFE  [08]  C9 05 3A 9E 2C 00 00 00
  vcan0  18FDE8FE  [08]  EA 01 E0 01 00 00 00 00
  vcan0  18FDECFE  [08]  6F 7C 94 C7 B2 01 00 00
  vcan0  1CFE0DFE  [08]  00 00 00 00 00 00 00 00
  vcan0  18FED8FE  [09]  19 91 23 18 BB 77 0E 2F AB
  vcan0  18EEFEFE  [08]  B5 26 11 1D D7 05 16 28
  vcan0  18CAFEFE  [08]  39 59 8E 21 00 00 00 00
  vcan0  1CEBFEFE  [08]  D8 00 00 00 00 00 00 00
  vcan0  1CECFEFE  [08]  10 0D 22 92 04 FF 00 00
  vcan0  18C9FEFE  [08]  13 29 2C 03 00 00 00 00
  vcan0  18EAFEFE  [03]  CB 08 F4
  vcan0  14FD6AFE  [08]  02 E0 69 00 00 00 00 00
  vcan0  1CFD69FE  [08]  20 32 71 C3 3D 00 00 00
  vcan0  10FD51FE  [08]  01 CB B4 00 00 00 00 00
  vcan0  18FD6BFE  [08]  90 B1 E8 09 00 00 00 00
  vcan0  18FD54FE  [22]  61 AE DC 02 AF 3F 45 64 A4 C5 9F 33 8C 28 A5 C9 69 6D B8 E4 AC 03
  vcan0  18FD55FE  [22]  24 5B 30 CB 0F 40 99 DD B9 71 FD 4C 3E 4B D5 3D 6D AD 5E 92 54 69
  vcan0  18FD56FE  [22]  20 E6 68 7C 4C 23 A0 43 35 C0 F8 1B C2 4D 99 CC 68 F9 29 3A 08 18
  vcan0  18FD57FE  [22]  71 C7 1B 5A C0 8C 2A 85 D3 50 90 ED 33 D5 B9 8F E3 A0 FD 59 A8 7C
  vcan0  18FD58FE  [22]  81 45 52 29 2B 1F 69 6E B2 8A CD 4B 02 C7 D6 77 EC F4 3D 52 B6 51
  vcan0  18FD59FE  [22]  7F 05 4B 42 0E 53 46 42 C5 CA 01 D2 58 03 9D 40 AD DA 0E 4D 42 2D
  vcan0  18FD5AFE  [22]  6C 12 F8 A3 BC 08 97 1E 59 F3 27 1A 17 04 ED 23 8E 82 DE BA 87 E5
  vcan0  18FD5BFE  [22]  90 44 EB 3E 52 F3 12 DE E9 C9 1E 3C FA E3 EA 7B BF 32 0E FD 9B D1
  vcan0  18FD5CFE  [22]  31 F9 98 7A F2 CB 98 27 AD EE AD 6C 4D AB 80 62 C8 7B 53 FD 13 A1
  vcan0  18FD5DFE  [22]  4C 1D D8 40 94 DD 4B 71 3A FB 45 05 06 A3 A3 C7 01 92 34 3B 17 46
  vcan0  18FD5EFE  [22]  5C 24 9C EB 4E 6D 8E 59 30 2D 48 FA EE B7 E6 93 4C 27 5F 28 FD 63
  vcan0  18FD5FFE  [22]  65 A7 F0 80 03 B3 6D 24 F4 39 68 C8 79 65 FA 1A EC 86 A6 16 AE AE
  vcan0  189FFEFE  [22]  4B 19 09 50 9F E9 83 2C 77 EC 5E F8 BA 8A C9 D1 15 FD 04 29 EC 5E
  vcan0  18FD67FE  [08]  00 00 00 00 00 00 00 00
  vcan0  14FD53FE  [08]  69 8D 04 94 ED 01 00 00
  vcan0  189EFEFE  [08]  08 8D 8E A3 B6 00 00 00
  vcan0  18FD80FE  [22]  47 65 2B 3F C6 55 E9 79 09 18 75 3A 1E E8 B5 79 13 6B 88 7C FB C4
  vcan0  18FD82FE  [22]  06 A4 83 39 6D A1 86 8E D5 73 CE F2 6F 67 D2 7C 9D 46 AC CC 5B 69
  vcan0  18FD90FE  [05]  71 80 14 45 55
  vcan0  18FD7EFE  [08]  21 56 00 00 00 00 00 00
  vcan0  18FED9FE  [08]  92 47 18 5D C6 DE 1C EA
  vcan0  18A7FEFE  [08]  1A 5B 03 6E 7B 89 6D 2B
  vcan0  18A6FEFE  [08]  1D 7E 1C C2 06 20 3E DB
  vcan0  18A5FEFE  [08]  A1 32 E1 FC 2C 6F 24 83
  vcan0  18FD71FE  [08]  B1 A0 B6 CD 8A E8 C2 0F
  vcan0  18FEF5FE  [08]  77 94 EE AF 14 04 C6 2C
  vcan0  18FEDEFE  [08]  24 00 00 00 00 00 00 00
  vcan0  18FEAEFE  [08]  95 F6 4D 61 94 8F 02 00
  vcan0  18FEF9FE  [08]  46 90 84 20 15 00 00 C2
  vcan0  1CFEAAFE  [08]  5B D2 61 B0 97 00 00 00
  vcan0  18FE51FE  [08]  A3 00 00 00 00 00 00 00
  vcan0  10FE6FFE  [08]  92 2D 16 34 4E 8B 82 00
  vcan0  1CFEA8FE  [08]  2E 00 00 00 00 00 00 00
  vcan0  1CFE8CFE  [08]  96 39 FA 54 00 05 77 00
  vcan0  18FEFDFE  [08]  C7 04 91 00 00 00 00 00
  vcan0  18E8FEFE  [08]  02 AC 00 00 74 92 8D 4D
  vcan0  18FE4EFE  [08]  93 00 00 00 00 00 00 00
  vcan0  18F012FE  [08]  42 35 21 7B 31 A1 02 00
  vcan0  18FDAEFE  [08]  E9 95 00 00 00 00 00 00
  vcan0  0CF013FE  [08]  28 27 BE A9 AF C4 C2 51
  vcan0  18FEF7FE  [08]  0B A8 37 44 B7 DA B1 69
  vcan0  18FDA8FE  [08]  00 01 00 AD 01 00 00 00
  vcan0  18FDA9FE  [08]  01 00 01 AD 00 00 00 00
  vcan0  1CFDA7FE  [08]  CD 05 00 00 00 00 00 00
  vcan0  0CFDA6FE  [08]  91 2F 89 78 45 03 00 00
  vcan0  08F02DFE  [07]  13 C3 86 DD FE C1 47
  vcan0  18FCEAFE  [08]  CE 84 00 00 00 00 00 00
  vcan0  0CF029FE  [08]  7A 49 85 09 7B 7F 80 D1
  vcan0  14FD16FE  [08]  02 94 C2 00 00 00 00 00
  vcan0  1897FEFE  [08]  3E 00 00 00 00 00 00 00
  vcan0  1898FEFE  [08]  19 00 00 00 00 00 00 00
  vcan0  08F02CFE  [08]  51 53 56 B0 2C 00 00 00
  vcan0  18FD12FE  [08]  0C 0D 13 00 00 00 00 00
  vcan0  18FD13FE  [08]  A6 1B 5E 00 00 00 00 00
  vcan0  1896FEFE  [08]  01 00 00 00 00 00 00 00
  vcan0  18FD01FE  [08]  66 E2 14 48 00 00 00 00
  vcan0  14FCEEFE  [08]  B5 7D 80 01 A4 95 41 3C
  vcan0  0C99FEFE  [08]  FD 9B 49 05 93 77 CA 03
  vcan0  18FCE8FE  [08]  08 00 00 00 00 00 00 00
  vcan0  18FD09FE  [08]  44 E3 58 4C 78 06 FE 06
  vcan0  18F02EFE  [08]  C4 DA A4 AA 00 00 00 00
  vcan0  18FCF1FE  [08]  D1 64 00 00 00 00 00 00
  vcan0  18FCF3FE  [08]  0A CD 36 50 00 00 00 00
  vcan0  18FCF2FE  [08]  B1 92 17 A6 44 9C 34 62
  vcan0  18FCFFFE  [08]  3B F4 B9 CC 00 00 00 00
  vcan0  1CFD08FE  [08]  C6 7F 51 46 B9 7A 00 00
  vcan0  14FCFBFE  [08]  40 06 07 0F 00 00 00 00
  vcan0  1CFCFCFE  [08]  27 7F 40 06 00 00 00 00
  vcan0  0CFD25FE  [08]  90 5A 39 3C 74 D6 38 00
  vcan0  0CFD27FE  [08]  D4 6D 85 57 25 8E BC 00
  vcan0  0CFD29FE  [08]  E6 8A EA 84 0D 15 34 00
  vcan0  0CFD2BFE  [08]  DD 77 79 A1 72 FD 5C 00
  vcan0  0CFD2DFE  [08]  99 5C 4D 41 F4 7D 38 00
  vcan0  0CFD2FFE  [08]  27 32 B6 DC 24 69 D0 00
  vcan0  0CFD23FE  [08]  EB 18 BE DC 8F 61 5C 00
  vcan0  18FCF0FE  [08]  BE 00 00 00 00 00 00 00
  vcan0  14FCEFFE  [08]  1A DA 00 00 00 00 00 00
  vcan0  14FD00FE  [08]  97 92 C4 EE 69 B6 26 00
  vcan0  10FCFDFE  [08]  82 09 3A 14 5A EB A1 46
  vcan0  1CFCFAFE  [08]  40 06 40 06 00 00 00 00
  vcan0  1CFCFEFE  [08]  10 DE 86 04 C8 60 00 00
  vcan0  18FCE7FE  [08]  ED 14 34 53 13 12 61 00
  vcan0  18FD7CFE  [08]  00 32 5B 4D C4 89 C5 00
  vcan0  18FCF8FE  [08]  CE 57 F6 AB 07 F3 00 00
  vcan0  18FD1BFE  [08]  5B C7 6A 08 2A 43 1D 00
  vcan0  18FCF9FE  [08]  14 16 B6 AD 19 D3 00 00
  vcan0  18FD1CFE  [08]  36 DE 5A F0 DB C9 15 00
  vcan0  18FD04FE  [08]  28 01 00 00 00 00 00 00
  vcan0  18FD05FE  [08]  25 A9 75 00 00 00 00 00
  vcan0  18FD06FE  [08]  B8 03 00 00 00 00 00 00
  vcan0  18A2FEFE  [08]  D6 2C 90 DA 0D 35 AF 86
  vcan0  18A8FEFE  [08]  07 00 88 00 00 00 00 00
  vcan0  18FD70FE  [08]  22 08 20 32 25 00 00 00
  vcan0  18FD7FFE  [08]  71 00 00 00 00 00 00 00
  vcan0  18FD94FE  [08]  71 B0 B0 98 52 4B 3E D8
  vcan0  18FD6FFE  [08]  40 06 44 F8 C6 7A 59 00
  vcan0  18FD88FE  [08]  B5 E5 15 A9 F7 5A A7 D4
  vcan0  18FD87FE  [08]  23 7F 65 45 1B 2C 41 E4
  vcan0  18FD86FE  [08]  21 B7 E5 EA 5B DD F0 63
  vcan0  18FD85FE  [08]  DE 5A ED B9 DE 52 CF D6
  vcan0  18FD84FE  [08]  0F 04 6F C5 D8 41 24 8F
  vcan0  14FD81FE  [08]  C0 00 00 00 00 00 00 00
  vcan0  18FD77FE  [08]  E0 3C 6F CB 7E C2 FF DE
  vcan0  18FD76FE  [08]  0C 5D 60 CC 2B 11 5E 9E
  vcan0  18FD75FE  [08]  10 C3 DB 56 4A F6 16 A1
  vcan0  18FD74FE  [08]  7E 0F 48 D2 65 B4 ED 47
  vcan0  18FD73FE  [08]  E1 2A 0E 31 C7 04 BB 78
  vcan0  18FD72FE  [08]  35 79 E4 BC A0 4F B9 6C
  vcan0  18A9FEFE  [08]  01 00 00 00 00 00 00 00
  vcan0  1CFD8AFE  [08]  7C 00 00 00 00 00 98 00
  vcan0  18F01DFE  [08]  20 D6 37 00 15 76 0F A8
  vcan0  18FD6EFE  [08]  D8 8D 7E 17 CD 48 26 00
  vcan0  18FD83FE  [08]  01 00 00 00 00 00 00 00
  vcan0  18FD95FE  [08]  2A 95 35 0B 00 00 00 00
  vcan0  18FD89FE  [08]  E0 05 00 00 00 00 00 00
  vcan0  1CFEB7FE  [10]  4C 38 08 E1 D4 2F 64 47 DD 5C
  vcan0  18FE40FE  [08]  0D 54 55 17 F0 A5 63 34
  vcan0  0CFE41FE  [08]  5C 33 17 8E D6 FF BF 1A
  vcan0  0CFE72FE  [08]  6A FA 01 1E 01 00 00 00
  vcan0  1CFE87FE  [08]  C3 79 59 EE D6 F4 A3 DB
  vcan0  1CFE86FE  [08]  85 8F E3 67 A3 03 A8 67
  vcan0  1CFE85FE  [08]  FE 07 53 BF 7C AD AD B1
  vcan0  1CFE84FE  [08]  38 24 DE ED 4B 8B FA D4
  vcan0  1CFE83FE  [08]  39 2E BB 4D 81 03 BF 3F
  vcan0  1CFE82FE  [08]  07 A2 CD F1 ED 10 E4 D7
  vcan0  1CFE8AFE  [08]  D8 33 78 C6 00 00 00 00
  vcan0  1CFE89FE  [08]  D2 B7 35 F5 75 0A 56 77
  vcan0  1CFE88FE  [08]  0E 69 DE 2A 4A 61 02 0F
  vcan0  18FDC8FE  [08]  0F 00 00 00 00 00 00 00
  vcan0  18FDCAFE  [08]  00 00 00 00 00 00 00 00
  vcan0  18FEDCFE  [08]  C6 F7 14 AF FD BE 01 E1
  vcan0  1CFEA5FE  [08]  B8 6A 49 ED 2D 00 00 00
  vcan0  18FEA6FE  [08]  45 57 DC 4D C3 99 4D 30
  vcan0  18FDD0FE  [08]  38 8E E6 CF 8D 91 02 6D
  vcan0  18FEF6FE  [08]  58 36 CE B4 8C 85 0C 3D
  vcan0  18FE6DFE  [08]  CE C5 6D 0E E5 00 00 00
  vcan0  08FE6EFE  [08]  84 9B 42 17 E9 EC F5 F0
  vcan0  18F008FE  [08]  9C B1 32 00 00 00 00 00
  vcan0  18FEE5FE  [08]  B6 4D 05 57 AF 96 7E 31
  vcan0  0CFDE6FE  [08]  00 00 82 07 00 00 00 00
  vcan0  1CFEB8FE  [22]  40 F9 66 AF D2 43 B6 AE 1D A6 49 38 7E 3C 72 E5 22 28 07 54 3F 71
  vcan0  1CFE8BFE  [08]  87 FA 9B F9 90 8F 5F D8
  vcan0  1CFE81FE  [08]  27 EC F9 C6 09 1C 99 19
  vcan0  1CFEB2FE  [08]  9C D1 83 68 1B EE DC 2F
  vcan0  18FE55FE  [08]  2A 03 00 00 00 00 00 00
  vcan0  1CFEAFFE  [08]  EE 0F 95 95 81 E4 8E 90
  vcan0  18FD9CFE  [08]  4C F0 84 31 00 B1 01 7E
  vcan0  18FD9DFE  [08]  CF 0D 4E F9 C9 04 45 10
  vcan0  18FDA4FE  [08]  C6 10 95 26 65 1A 02 00
  vcan0  10FDA2FE  [08]  D1 0E 9A 42 BF 00 00 58
  vcan0  18FDAAFE  [08]  AC BF 4C A2 40 3C DB 87
  vcan0  10FDA3FE  [08]  40 06 AA 0A 40 06 55 65
  vcan0  18FDA5FE  [08]  BB 86 8F 12 29 BD A3 09
  vcan0  18FD9BFE  [08]  48 AF 0A 1B 1D 00 00 00
  vcan0  0CF01CFE  [08]  B9 37 1A 93 00 00 00 00
  vcan0  10F01AFE  [08]  61 CA 2F D9 0E 18 FB F6
  vcan0  0CF019FE  [08]  1B B5 40 4D 61 0C F2 67
  vcan0  0CF018FE  [08]  90 9D 7B 1F 7D 88 47 44
  vcan0  0CF017FE  [08]  5D 05 0C E9 B9 07 11 52
  vcan0  0CF016FE  [08]  F3 16 83 FF 0D C4 00 00
  vcan0  0CF015FE  [08]  A8 A2 1B 52 AD C6 00 00
  vcan0  0CF014FE  [08]  CA 8B 7D 57 F6 01 00 00
  vcan0  0C02FEFE  [08]  40 01 99 9B E4 AD 00 00
  vcan0  18FEC9FE  [08]  01 00 05 00 21 BD 00 00
  vcan0  1803FEFE  [08]  14 00 72 D0 A2 D3 84 00
  vcan0  18FEC4FE  [08]  01 00 50 04 87 EB 5C AD
  vcan0  0CFEC6FE  [08]  14 4A 20 D2 7D 1F A5 1C
  vcan0  18E2FEFE  [08]  01 04 00 00 00 00 00 00
  vcan0  18FE5DFE  [08]  C6 33 D4 CD 97 00 00 00
  vcan0  0CFE5FFE  [08]  49 4C 88 2B AC 2A B7 72
  vcan0  18FE61FE  [08]  08 88 45 01 C4 F6 05 8C
  vcan0  18FE63FE  [08]  E4 23 E6 55 02 26 15 00
  vcan0  18FE65FE  [08]  7F 2B 00 00 00 00 00 00
  vcan0  18E1FEFE  [08]  01 00 00 00 00 00 00 00
  vcan0  18FEC8FE  [08]  05 00 0C 93 5C 01 D6 00
  vcan0  0CFE60FE  [08]  2B C8 26 B3 72 90 41 73
  vcan0  18FE62FE  [08]  F0 05 05 11 00 00 00 00
  vcan0  18FE64FE  [08]  51 40 00 10 55 01 00 00
  vcan0  18DBFEFE  [08]  1B 8B 00 00 00 00 00 00
  vcan0  18DAFEFE  [08]  14 91 00 00 00 00 00 00
  vcan0  18EDFEFE  [08]  05 59 01 00 00 00 00 00
  vcan0  18E4FEFE  [08]  E4 C3 11 88 22 3E 2B 00
  vcan0  18E5FEFE  [08]  44 19 00 15 C9 8F 97 13
  vcan0  18FE5CFE  [08]  FF B4 D7 EE 00 00 00 00
  vcan0  18FE5EFE  [08]  92 D5 BC F3 D6 00 00 00
  vcan0  18FDB8FE  [08]  F9 E2 DC 70 FE 1A 98 19
  vcan0  0C04FEFE  [08]  FA 60 22 00 00 00 00 44
  vcan0  18FEFFFE  [08]  03 00 00 00 00 00 00 00
  vcan0  18FEEAFE  [08]  20 B5 CD 31 52 95 19 00
  vcan0  18FE52FE  [08]  9B 5A 9E 1C 00 00 00 00
  vcan0  1CFE8DFE  [08]  96 CE 6A 45 39 4F FC DA
  vcan0  18FEF3FE  [08]  12 00 00 00 18 00 00 00
  vcan0  18FEECFE  [08]  98 00 00 00 00 00 00 00
  vcan0  18FEE7FE  [08]  23 D3 1E 9C 23 78 AE 4A
  vcan0  18FE68FE  [08]  D3 0A C5 00 00 00 00 00
  vcan0  18FEE8FE  [08]  A5 25 D0 73 90 B5 9B 3A
  vcan0  18FEC1FE  [08]  4C B9 29 00 32 98 00 00
  vcan0  18F009FE  [08]  4A 8A 71 2A 99 E5 24 44
  vcan0  18FE4FFE  [08]  05 70 00 00 00 00 00 00
  vcan0  18FEE0FE  [08]  71 DC D9 40 57 FC D9 D6
  vcan0  1CFEB6FE  [08]  CC C4 F7 FC 39 5C 00 00
  vcan0  1CFEB0FE  [20]  FC DF D4 E4 8A 8F 73 1F 45 D8 D1 01 05 10 F3 9E E8 02 20 F9
  vcan0  1CFEB4FE  [16]  F3 09 58 1B D8 D4 9E 21 61 67 8E 0C D3 5D 8C 63
  vcan0  1CFEB5FE  [08]  D0 49 A7 B6 B1 A8 91 F1
  vcan0  18FDC0FE  [08]  00 CC 2D 00 00 00 00 00
  vcan0  18FDBAFE  [08]  01 12 00 00 00 00 00 00
  vcan0  18FDBBFE  [08]  C1 62 7F 06 21 D9 05 6F
  vcan0  18FDBCFE  [15]  1E 06 10 5F FF C6 52 57 DE 9F 19 2F B1 01 00
  vcan0  18FDBDFE  [08]  18 71 3E 8A 00 00 00 00
  vcan0  18FDBFFE  [08]  79 00 00 00 00 00 00 00
  vcan0  18FDBEFE  [04]  1D 34 D6 4E
  vcan0  18AEFEFE  [08]  00 DA 00 00 00 00 00 00
  vcan0  18FDB9FE  [08]  12 35 00 00 00 00 00 00
  vcan0  1CFE7AFE  [08]  61 4C 1E 8F 79 4B 00 00
  vcan0  1CFE79FE  [08]  4E 29 22 9C 96 BF 00 00
  vcan0  1CFE78FE  [08]  A3 04 44 08 BB 00 00 00
  vcan0  1CFEBBFE  [16]  39 BD 11 CA 3C 07 AB 26 39 20 C6 22 F6 7C 2D 01
  vcan0  1CFEBAFE  [12]  F3 87 32 36 CF 14 AB CE 70 A3 53 8F
  vcan0  18D5FEFE  [08]  AD A8 02 D6 34 DD 24 2F
  vcan0  18FEE6FE  [08]  7C 54 14 38 5C 59 7F E9
  vcan0  18FE96FE  [08]  9B 75 AD 02 A8 15 FD E0
  vcan0  0CFE6CFE  [08]  43 76 35 58 E3 F7 71 DD
  vcan0  18FDD3FE  [08]  11 F6 49 52 F7 3A B8 62
  vcan0  18FE97FE  [08]  3F D0 DB 2B DF 8F 4E 70
  vcan0  18FE98FE  [08]  34 32 EF 45 7D DA 45 D9
  vcan0  18FE99FE  [08]  1A C3 89 C8 35 8E 0B E0
  vcan0  18FE9AFE  [08]  84 07 8B 6A 17 2A 3E D4
  vcan0  1CFE9BFE  [08]  84 D1 00 44 75 E1 89 00
  vcan0  18FE4BFE  [08]  90 06 00 00 00 00 00 00
  vcan0  18FEE2FE  [08]  2A A5 3D 34 00 00 00 00
  vcan0  18FEDDFE  [08]  69 03 17 C0 00 00 00 00
  vcan0  1CFE4DFE  [08]  69 D5 40 9C 00 00 00 00
  vcan0  18FDE2FE  [08]  09 1F 82 CC 20 BB 00 00
  vcan0  18FE8FFE  [08]  35 2C 00 00 00 00 00 00
  vcan0  18FEDAFE  [08]  87 0A 1E 14 00 00 00 00
  vcan0  18FEE4FE  [08]  63 00 09 00 D8 80 66 08
  vcan0  18FEC0FE  [08]  9B D2 A7 EC 1D 8E 24 86
  vcan0  1CFE8EFE  [08]  EA 0D 41 00 00 00 00 00
  vcan0  18FE53FE  [08]  1D 66 24 4F 05 2F 1D 91
  vcan0  18FEFBFE  [08]  F5 C6 03 00 00 00 00 00
  vcan0  1CDEFEFE  [08]  04 59 01 EC 00 00 00 00
  vcan0  18FEE1FE  [19]  13 E2 D8 59 02 00 AB 2C E0 B5 AC 60 AE 61 72 0E 65 BB CD
  vcan0  1CFE95FE  [08]  6B 82 CD C2 00 00 00 00
  vcan0  18FEF0FE  [08]  AF 3F 18 B5 9A 12 B2 1B
  vcan0  18FDCDFE  [08]  7F 20 32 12 11 60 E0 00
  vcan0  18FDCBFE  [08]  21 00 FE 11 00 00 00 00
  vcan0  18FDC7FE  [08]  22 00 0F 0E 00 00 00 00
  vcan0  0CFDCCFE  [08]  15 3F E0 4F 95 00 00 00
  vcan0  18FDE5FE  [08]  55 C7 47 52 96 B9 35 5E
  vcan0  18FE4CFE  [08]  78 00 C0 83 00 00 00 66
  vcan0  18FDDCFE  [08]  A0 00 00 00 00 00 00 00
  vcan0  18FE9CFE  [08]  2D 62 A4 23 DE 1C 00 00
  vcan0  18FE9DFE  [08]  53 8F 8C C7 6C AC 73 22
  vcan0  18FE9EFE  [08]  58 CC FB 55 C8 16 05 87
  vcan0  10FE76FE  [08]  80 22 FF 00 00 00 00 00
  vcan0  0CFE75FE  [08]  EB 1C 01 00 00 3E 98 00
  vcan0  0CFE71FE  [08]  F0 77 CB DA 3A 95 02 00
  vcan0  1CFEB9FE  [22]  86 92 BB 28 68 26 41 84 4F 65 CB AB 04 5E B1 E9 26 0B 6D 2F 90 7D
  vcan0  0CFE74FE  [08]  92 22 01 00 00 00 00 00
  vcan0  0CF00DFE  [08]  F0 E1 EE 30 9F 00 00 00
  vcan0  0CFE73FE  [08]  B8 B6 00 00 00 00 00 00
  vcan0  1CFEB3FE  [08]  07 50 BB 08 C5 2E 28 00
  vcan0  18FEF2FE  [08]  71 39 B6 E2 C5 21 62 D4
  vcan0  18FEE9FE  [08]  62 2C 26 A8 C9 70 EC 7D
  vcan0  1CFDDFFE  [08]  00 00 00 00 00 00 00 00
  vcan0  1CFDD1FE  [08]  0A B7 00 00 00 00 00 00
  vcan0  18FE5BFE  [08]  40 00 00 00 00 00 00 00
  vcan0  10F007FE  [08]  22 00 00 00 00 00 00 00
  vcan0  1CFE91FE  [08]  04 00 00 00 00 00 00 00
  vcan0  18FEBDFE  [08]  4E 02 D2 15 BC 7A CC 00
  vcan0  18FE90FE  [33]  D9 2E 84 5E 3C DD BB 9A 3F 59 90 EE 36 3A 0B 3E A8 16 B4 D4 21 94 D1 E8 55 3E A9 51 EB 7A 57 01 03
  vcan0  18FE4AFE  [08]  66 4B A8 22 06 01 00 00
  vcan0  1CFEC3FE  [08]  06 0E 00 00 00 00 00 00
  vcan0  1CFEC5FE  [08]  E1 04 00 00 00 00 00 00
  vcan0  1CFEC7FE  [08]  74 F1 2A ED 28 49 00 00
  vcan0  0CF002FE  [08]  A4 22 D4 01 0D 10 89 17
  vcan0  18FE69FE  [08]  72 7B 58 84 44 47 6B 74
  vcan0  18FEA4FE  [08]  15 EF 12 87 C6 DA 2B A1
  vcan0  18FEEEFE  [08]  32 4F BC 7D 04 6A A2 18
  vcan0  18FE07FE  [08]  EA BF AD F4 00 00 00 00
  vcan0  18F00BFE  [08]  47 4D F5 14 30 04 00 00
  vcan0  1CFEC2FE  [08]  02 00 00 00 00 00 00 00
  vcan0  18F000FE  [08]  34 F1 5F D6 79 99 EB 16
  vcan0  1CFE9FFE  [08]  71 5C D4 5C 3F 7C D1 24
  vcan0  18FEA0FE  [08]  62 0D E5 D0 C1 2E 4C 24
  vcan0  1CFEA1FE  [08]  97 AF 3B 29 B0 7F 32 7F
  vcan0  1CFEA2FE  [08]  32 58 ED 9C CA 99 F9 B3
  vcan0  1CFEA3FE  [08]  E7 68 32 CF 7F 68 4C 5D
  vcan0  18FDE4FE  [08]  E0 00 00 00 00 00 00 00
  vcan0  18FDD2FE  [08]  AE 72 62 00 00 00 00 00
  vcan0  18FDE3FE  [08]  B2 00 00 00 00 00 00 00
  vcan0  1CFEA9FE  [08]  E8 E1 A0 9F C3 67 9E C0
  vcan0  0CFDDBFE  [08]  33 E1 67 9D BF 14 98 00
  vcan0  0CFDD9FE  [08]  D3 63 3D 7C 69 7A A4 00
  vcan0  0CFDD7FE  [08]  8F 52 27 B2 05 9E D8 00
  vcan0  1CFE92FE  [08]  18 22 DC 5B 24 B4 8E 8B
  vcan0  1CFEB1FE  [08]  26 9D 88 C1 62 32 EE 0F
  vcan0  0CF00AFE  [08]  C0 0C 7F 32 B9 18 00 00
  vcan0  18FE6AFE  [07]  22 50 A3 0A 2E 82 1B
  vcan0  18FDC1FE  [08]  56 BC 97 B9 86 38 00 00
  vcan0  18FEDBFE  [08]  94 C7 11 56 1E B8 06 BB
  vcan0  18FEEFFE  [08]  BD B8 4D E3 09 19 52 46
  vcan0  1CFE93FE  [08]  4E 33 0A 00 00 00 00 00
  vcan0  18FDD5FE  [08]  07 39 96 59 DD E9 03 1E
  vcan0  1CFEBEFE  [08]  7E E0 92 74 0C AB 00 00
  vcan0  0CF003FE  [08]  0E 23 28 41 BF 9B E7 3B
  vcan0  18FDC5FE  [08]  83 49 A9 49 00 00 00 00
  vcan0  18FE54FE  [08]  F7 A8 54 07 D5 CB C7 E7
  vcan0  18FEE3FE  [39]  6E 9C 25 15 F2 47 9D E8 36 59 72 BB AA DB E4 97 37 A8 07 E4 E8 4A B0 E7 26 48 6C 3A 3C A4 88 CE 15 56 01 01 01 01 01
  vcan0  18FDC4FE  [08]  26 0C 1A 02 00 00 00 00
  vcan0  1CFEACFE  [08]  44 81 D0 E0 2D 90 5B 94
  vcan0  18FEADFE  [08]  B3 23 65 9B CA F4 EB BC
  vcan0  18FEBFFE  [08]  21 8C 76 2B 04 B9 A7 33
  vcan0  18F001FE  [08]  63 3A C5 3A CB 52 FC 18
  vcan0  18F006FE  [08]  FD B7 03 0F 00 00 00 00
  vcan0  18FE94FE  [08]  9D 38 85 00 00 00 00 00
  vcan0  18FE6BFE  [08]  A1 8B 00 00 00 00 00 00
  vcan0  18FEFCFE  [08]  18 AC B2 7F A8 D6 26 00
  vcan0  18FDC6FE  [08]  0A 25 00 00 00 00 00 00
  vcan0  18FE70FE  [08]  FF 36 0E 14 00 00 00 00
  vcan0  18CFFEFE  [08]  1F 9B 56 CB 0B F1 F5 C6
  vcan0  1CFE80FE  [08]  05 DF 4B A0 00 00 00 00
  vcan0  1CFE7FFE  [08]  9B 86 FE C7 FE E7 BB F8
  vcan0  1CFE7EFE  [08]  94 75 F3 E5 AE D2 96 8E
  vcan0  1CFE7DFE  [08]  C0 6F DA 4A C2 BA AB 33
  vcan0  1CFE7CFE  [08]  0B A7 A5 3A 6E A2 A8 70
  vcan0  1CFE7BFE  [08]  4A C6 A5 0C AA 90 E1 4F
  vcan0  1CFDC9FE  [08]  83 6A 00 00 00 00 00 00
  vcan0  18FDD4FE  [08]  04 03 03 00 00 00 00 00
  vcan0  18E0FEFE  [08]  5A 31 6A 10 0C 3B B1 00
  vcan0  18D0FEFE  [08]  1B 00 00 00 00 00 00 00
  vcan0  18FEEBFE  [08]  75 8F E1 67 00 00 00 00
  vcan0  18FEF1FE  [08]  F6 86 E4 94 E9 F4 54 C0
  vcan0  18FEEDFE  [08]  DB 6D F7 00 00 00 00 00
  vcan0  18FE67FE  [08]  0B B8 00 00 00 00 00 00
  vcan0  1CFEBCFE  [16]  D3 E0 01 BB 0E 55 A4 ED 65 A8 94 92 60 C8 2E DD
  vcan0  18FDE1FE  [08]  C1 00 00 00 00 00 00 00
  vcan0  18FE50FE  [08]  1D 76 00 00 00 00 00 00
  vcan0  18FD07FE  [08]  EB 9C 4D 00 00 00 00 00
  vcan0  1CFD18FE  [08]  E5 46 63 13 23 35 6F 31
  vcan0  00F02BFE  [08]  03 00 00 00 00 00 00 01
  vcan0  18FCF5FE  [08]  AF C6 AB 2B DC 00 00 00
  vcan0  18FCF4FE  [08]  C0 8D 63 BA F2 02 B5 00
  vcan0  18FCF7FE  [08]  1E BC 1C 93 C9 00 00 00
  vcan0  18FCF6FE  [08]  92 CC 19 14 37 00 00 00
  vcan0  0CFD26FE  [08]  A2 23 A3 F2 A0 79 E6 FA
  vcan0  0CFD28FE  [08]  40 F9 64 40 50 3B 84 C0
  vcan0  0CFD2AFE  [08]  80 56 B3 B9 50 8E 83 54
  vcan0  0CFD2CFE  [08]  4F 61 38 8A 30 C1 75 1A
  vcan0  0CFD2EFE  [08]  B1 3E D8 3F B0 1C 73 B5
  vcan0  0CFD30FE  [08]  B1 4C 07 AF 40 D6 97 6A
  vcan0  0CFD24FE  [08]  39 E2 20 5B 70 E3 5A 9F
  vcan0  14FD17FE  [08]  C9 28 30 00 00 00 00 00
  vcan0  18FD14FE  [08]  00 AC 19 C4 D5 00 00 00
  vcan0  18FD15FE  [08]  00 64 B5 F5 44 00 00 00
  vcan0  18FD1DFE  [08]  F3 AA EE DE 00 00 00 00
  vcan0  18FD1EFE  [08]  68 6F A1 E1 00 00 00 00
  vcan0  18FCEDFE  [08]  3D 57 21 08 00 00 00 00
  vcan0  18FD45FE  [08]  61 19 70 AC 6E 51 5B 73
  vcan0  0CFD0AFE  [08]  80 02 42 7F 00 00 00 00
  vcan0  0CFD0BFE  [08]  81 BB FF 00 D3 00 00 00
  vcan0  0CFD0CFE  [08]  53 5F 20 30 00 00 00 00
  vcan0  0CFD0DFE  [08]  6B 09 A3 03 C3 00 00 00
  vcan0  18FD44FE  [08]  39 05 03 40 06 00 00 00
  vcan0  0095FEFE  [08]  F0 42 10 A1 00 00 00 00
  vcan0  18FD1AFE  [08]  EB 7D 21 7D 00 00 00 00
  vcan0  18FD46FE  [08]  1A 7E 25 4E F5 E1 0E 37
  vcan0  18FE56FE  [08]  00 42 0B 36 C0 1F 40 14
  vcan0  0CFD0EFE  [08]  D5 EE 3A 92 00 00 00 00
  vcan0  0CFD0FFE  [08]  82 F3 89 01 62 00 00 00
  vcan0  0CFD10FE  [08]  98 8E B5 56 00 00 00 00
  vcan0  0CFD11FE  [08]  FC 06 0A 01 FA 00 00 00
  vcan0  0094FEFE  [08]  4D 9D 2B BA 00 00 00 00
  vcan0  18FCE9FE  [08]  07 00 00 00 00 00 00 00
  vcan0  0CF02AFE  [08]  13 A2 1A 98 BD 8E 2F 9A
  vcan0  18FCEBFE  [08]  06 00 00 00 00 00 00 00
  vcan0  18FCECFE  [08]  03 00 00 00 00 00 00 00
  vcan0  00FD37FE  [08]  CF E7 88 71 CC 00 00 00
  vcan0  18FD34FE  [08]  85 4F 49 CF 19 1E 0A 0D
  vcan0  18FD35FE  [08]  00 41 34 C5 0F 1F 7D 05
  vcan0  18FD33FE  [08]  BB C8 82 58 DB 00 F7 00
  vcan0  18FD36FE  [08]  D2 86 6E 17 0C 0F 00 00
  vcan0  18FD38FE  [08]  6E D1 0D 92 8D 15 00 00
  vcan0  18FD39FE  [08]  30 D8 05 00 00 00 00 00
  vcan0  00FD3AFE  [08]  74 3D B6 42 00 00 00 00
  vcan0  0CF027FE  [08]  FD 2A 0B 26 80 00 00 00
  vcan0  18FD3BFE  [08]  BA 8D 58 3F 0A 17 01 18
  vcan0  0CF026FE  [08]  07 DF 03 30 AC 20 00 00
  vcan0  0CF028FE  [08]  FF E0 18 13 06 00 00 00
  vcan0  18FD21FE  [08]  E7 44 5F 30 CD 40 F4 2F
  vcan0  18FD1FFE  [08]  C0 EB 66 5A 28 F9 9B 61
  vcan0  18FD3DFE  [08]  70 82 D3 5D 1A 12 DA 15
  vcan0  18FD3CFE  [08]  4B E1 FA D3 DB 01 94 00
  vcan0  14FD3EFE  [08]  DE B8 08 F4 57 0A 00 00
  vcan0  18FD3FFE  [08]  08 94 0C 00 00 00 00 00
  vcan0  18FD40FE  [08]  20 B9 3A 3B 00 00 00 00
  vcan0  0CF024FE  [08]  21 AC 0F B9 32 00 00 00
  vcan0  18FD41FE  [08]  DE 2E 9A 02 37 00 41 19
  vcan0  0CF023FE  [08]  FA A1 09 60 F9 1A 00 00
  vcan0  0CF025FE  [08]  30 F1 09 18 12 02 00 00
  vcan0  18FD22FE  [08]  81 4B 1F 9E 5A 2F 00 09
  vcan0  18FD60FE  [08]  4F 02 0D BC 0B 00 00 00
  vcan0  18FD61FE  [08]  00 C3 A2 20 8E 49 00 00
  vcan0  18FD62FE  [08]  BB 00 00 00 00 00 00 00
  vcan0  18FD63FE  [08]  29 E1 64 D2 00 00 00 00
  vcan0  18FD64FE  [08]  49 04 78 65 74 32 00 00
  vcan0  18A0FEFE  [08]  14 B0 00 00 00 00 00 00
  vcan0  08A1FEFE  [09]  8F 1B 02 EA 3F 90 1C 22 5A
  vcan0  18FE66FE  [08]  01 00 00 00 00 00 00 00
  vcan0  0CFDDAFE  [08]  A4 F1 02 93 60 11 65 50
  vcan0  0CFDD8FE  [08]  EE DC B1 64 30 2D F8 63
  vcan0  0CFDD6FE  [08]  C7 2E F3 37 A0 69 DD 88
  vcan0  18FEFAFE  [08]  12 49 CD 22 00 00 00 00
  vcan0  18FEFEFE  [08]  0B 00 00 00 00 00 00 00
  vcan0  18FD20FE  [08]  70 81 02 70 22 40 CC 7F
  vcan0  18A3FEFE  [08]  84 95 67 59 34 04 00 00
  vcan0  1CFD47FE  [08]  00 00 00 00 00 00 00 00
  vcan0  189BFEFE  [08]  65 F0 C1 51 00 00 00 00
  vcan0  18FD48FE  [08]  35 05 14 00 05 00 00 00
  vcan0  18FD49FE  [08]  DA 06 27 01 04 00 00 00
  vcan0  18F021FE  [08]  C0 AC D7 4A 71 80 1C 00
  vcan0  10FD52FE  [08]  02 65 C7 00 00 00 00 00
  vcan0  189CFEFE  [08]  1D 5A 2D 29 39 77 26 B8
  vcan0  189DFEFE  [08]  9F 58 DF 24 EF DC 62 7E
  vcan0  0C08FEFE  [08]  F3 4C F0 24 F2 86 81 CD
  vcan0  18FD9FFE  [08]  5F 3B 44 42 6A 13 11 42
  vcan0  18FD6DFE  [08]  0E 0F 42 C3 37 54 56 BD
  vcan0  18FDA1FE  [08]  3C 45 B3 E8 2F 75 D2 0A
  vcan0  18FD65FE  [08]  8F 13 04 40 06 0D 00 00
  vcan0  18FD8CFE  [08]  0A CA 0F 9E 00 00 00 00
  vcan0  18FD98FE  [36]  C6 EF 21 2A A8 0D B4 DA 18 CC 83 5F 0D 99 24 39 E5 DF 8A A1 00 61 69 07 68 43 1A B9 14 BF 5E 54 EF 02 10 2E
  vcan0  18F00EFE  [08]  7A A4 01 63 4D 67 1F 1D
  vcan0  18FDB4FE  [08]  15 72 68 A3 1C 11 00 00
  vcan0  1CDCFEFE  [08]  CD B6 00 00 00 00 00 00
  vcan0  1CDDFEFE  [08]  62 B5 00 00 00 00 00 00
  vcan0  1CFEA7FE  [08]  C3 D8 F7 E6 C9 00 00 00
  vcan0  0CD1FEFE  [08]  15 8A FA A9 E4 A2 0E 94
  vcan0  0CFE57FE  [08]  8D 2E E5 31 00 00 00 00
  vcan0  18A4FEFE  [12]  B3 4B 3B 84 F1 8D 72 40 55 5C 94 12
  vcan0  18FDB2FE  [08]  FD 3B 94 69 40 51 93 54
  vcan0  18F00FFE  [08]  F8 DC 38 35 20 67 14 03
  vcan0  18FDB3FE  [08]  72 F4 4F 02 1D 07 00 00
  vcan0  18FD7BFE  [08]  04 04 D1 36 7E E8 40 06
  vcan0  18FD79FE  [32]  E2 51 A8 85 CF 8B CE 2D 56 C6 7F 03 CF 74 56 F8 8A E2 33 96 DC 59 64 F4 F6 4D BE 7E C7 20 1B B0
  vcan0  18FD9EFE  [08]  61 DA F4 F6 15 B0 39 08
  vcan0  18FD6CFE  [08]  18 0C 54 F3 B9 C1 76 58
  vcan0  18FDA0FE  [08]  4B 32 0B 9E FA 38 D7 0A
  vcan0  18FD8BFE  [08]  01 93 24 5F 00 00 00 00
  vcan0  18FD99FE  [36]  95 C4 6A 58 56 26 BB 76 39 9D 4E 80 02 8E 88 28 A0 5B D8 83 69 C8 20 CF FE AD DB D5 A2 A7 FD 48 8A 93 1D 08
  vcan0  18F010FE  [08]  E9 17 56 0D 95 03 19 1F
  vcan0  18FDB1FE  [08]  CE BA C7 84 07 02 00 00
  vcan0  18FDAFFE  [08]  13 F3 D6 E7 6D 2C A9 51
  vcan0  18F011FE  [08]  AE 45 79 11 42 46 13 00
  vcan0  18FDB0FE  [08]  EA 46 66 12 00 15 00 00
  vcan0  18FD7AFE  [08]  04 04 F7 33 D7 15 40 06
  vcan0  18FD78FE  [32]  EE 9D 75 07 CB 47 E6 0D A5 85 28 A9 0F A0 E9 6D 54 7B 10 1A DE 5F 11 55 F8 FE D3 9C C9 57 31 25
  vcan0  0CFD92FE  [08]  31 4A 2B D7 EA 02 00 82
  vcan0  18FD66FE  [08]  83 DE 88 CC B4 FE A9 00
  vcan0  14FD68FE  [08]  7C EB C7 8C 4B 78 00 00
  vcan0  1807FEFE  [08]  5F 42 2A A9 D3 37 DA 00
  vcan0  18FE58FE  [08]  72 2D 6D D3 A6 7A 90 0E
  vcan0  18FE59FE  [08]  C6 DA B7 2D 57 C5 7D 4B
  vcan0  0CD2FEFE  [08]  F6 86 43 F5 4E 0E 20 1B
  vcan0  0CFE5AFE  [08]  A1 98 6C 62 36 49 FC 55
  vcan0  18FED5FE  [03]  4C 87 2F
  vcan0  1CFE77FE  [08]  0C CA 94 C8 D2 B8 00 00
  vcan0  18FDE0FE  [08]  65 D7 5C 9D 00 00 00 00
  vcan0  18FECFFE  [22]  0D 1C BF 42 23 55 CE 5E 5D 95 E0 9A 87 60 AD 61 14 1F 73 1C 79 A6
  vcan0  18FECEFE  [08]  56 86 06 61 1E 01 07 00
  vcan0  18FECDFE  [13]  9B AF 3C 0D 79 02 CE FF 21 91 51 33 2B
  vcan0  18FECCFE  [00] 
  vcan0  18FDB7FE  [13]  EF F5 A1 28 92 00 00 00 00 00 00 00 00
  vcan0  18FDB6FE  [12]  D0 1B E7 0E FC B8 41 32 EC C1 E3 91
  vcan0  18FDB5FE  [22]  E3 7E AE B9 7C B6 F0 CE 3C 33 CD 69 3C 57 B7 B8 81 20 28 A8 E5 E7
  vcan0  18C3FEFE  [08]  54 3F 00 00 00 C1 B4 C6
  vcan0  18C1FEFE  [08]  6E 92 72 55 44 DF C7 A1
  vcan0  18C2FEFE  [11]  EB 8B 0A D0 4E 44 07 AF DB 49 44
  vcan0  18FECBFE  [22]  F5 FC DD 5B AC 7A 1E 20 5D 0E 98 41 B2 14 DE CC 49 4F 00 EB 2A 77
  vcan0  18D3FEFE  [20]  AE E3 F0 8B F1 75 C8 50 0A 04 1C 05 40 51 B3 03 81 97 39 72
  vcan0  18D6FEFE  [01]  00
  vcan0  18D7FEFE  [02]  00 00
  vcan0  18D8FEFE  [08]  C1 48 24 00 00 FF 00 00
  vcan0  18DFFEFE  [08]  6C 14 C0 FF E5 73 00 00
  vcan0  18FED4FE  [22]  C2 EC D1 9E 16 AF 09 FA BC E7 A6 B8 0C A8 53 26 5E 33 9C B8 6F A5
  vcan0  18FED3FE  [00] 
  vcan0  18FED2FE  [08]  46 F5 7C F2 78 E2 76 9C
  vcan0  18FECAFE  [22]  3F 93 63 FD 04 E1 8D D3 E6 87 7F 98 38 F6 82 C7 0D 7C 8B 2E DE 66
  vcan0  18FDF7FE  [08]  CD C1 E8 EB 00 00 03 00
  vcan0  18FDF8FE  [08]  DF 8E B4 41 DD E5 47 90
  vcan0  18FDEDFE  [08]  E1 EA E2 68 5C FA 58 D3
  vcan0  18FDEEFE  [08]  FC 78 CD 1D 02 00 01 00
  vcan0  18FDEFFE  [08]  6F 45 46 9D 9B 1A AD 9B
  vcan0  18FDF0FE  [08]  D1 EB 59 EA 6F 01 51 76
  vcan0  18FDF1FE  [08]  EE 68 FC 2D 02 00 01 00
  vcan0  18FDF2FE  [08]  DF D6 18 3B 75 68 B2 B6
  vcan0  18FDF3FE  [08]  59 0F 7E 2E B9 00 62 78
  vcan0  18FDF4FE  [08]  E3 4A 28 05 02 00 03 00
  vcan0  18FDF5FE  [08]  3B A1 AE 8E 2E 9C 5C 48
  vcan0  18FDF6FE  [08]  07 66 11 C3 97 01 BE 35
  vcan0  18FDF9FE  [08]  2E BC 6B 90 0A 01 4D 55
  vcan0  18FE04FE  [08]  4E 27 4C C8 03 00 00 00
  vcan0  18FE05FE  [08]  B7 50 62 E3 3A 59 41 AB
  vcan0  18FDFAFE  [08]  90 F6 C9 8A 94 35 D3 E8
  vcan0  18FDFBFE  [08]  DA 76 2E 73 03 00 00 00
  vcan0  18FDFCFE  [08]  30 3B 55 63 75 DD F6 5B
  vcan0  18FDFDFE  [08]  A9 DC A8 07 75 01 C1 58
  vcan0  18FDFEFE  [08]  D8 D6 7E 83 03 00 00 00
  vcan0  18FDFFFE  [08]  51 AA 0A 57 90 1F BE 49
  vcan0  18FE00FE  [08]  DE 78 43 D1 1C 00 61 8F
  vcan0  18FE01FE  [08]  99 5D 03 A1 01 00 00 00
  vcan0  18FE02FE  [08]  55 AC CD 18 C0 97 BF 57
  vcan0  18FE03FE  [08]  70 28 79 4B 2A 00 BE 32
  vcan0  18FE06FE  [08]  6E 22 3D 64 44 01 11 8F
  vcan0  18FDE7FE  [08]  AA 02 A1 00 00 00 00 00
  vcan0  18FDE9FE  [08]  0E 1B C3 D9 8F 00 00 00
  vcan0  18FDEAFE  [08]  B7 A3 F4 5C 86 00 00 00
  vcan0  18FDEBFE  [08]  C2 DB 55 33 66 01 00 00
  vcan0  18FDE8FE  [08]  27 01 09 00 00 00 00 00
  vcan0  18FDECFE  [08]  14 C6 C2 34 E8 00 00 00
  vcan0  1CFE0DFE  [08]  00 00 00 00 00 00 00 00
  vcan0  18FED8FE  [09]  DF 36 62 06 DF 1B 00 15 4E
  vcan0  18EEFEFE  [08]  D0 0D 03 E8 BB 07 02 18
  vcan0  18CAFEFE  [08]  28 B7 4B 48 00 00 00 00
  vcan0  1CEBFEFE  [08]  A5 00 00 00 00 00 00 00
  vcan0  1CECFEFE  [08]  FF 72 00 00 00 FF 00 00
  vcan0  18C9FEFE  [08]  38 52 44 01 00 00 00 00
  vcan0  18EAFEFE  [03]  D8 81 35
  vcan0  14FD6AFE  [08]  03 9C 18 00 00 00 00 00
  vcan0  1CFD69FE  [08]  30 64 47 70 79 00 00 00
  vcan0  10FD51FE  [08]  02 A7 97 00 00 00 00 00
  vcan0  18FD6BFE  [08]  1E 17 1C 05 00 00 00 00
  vcan0  18FD54FE  [22]  5B B1 F2 58 E1 9E DC B8 0A C3 1B AF 38 48 1E 8E 72 D2 AE D9 46 C9
  vcan0  18FD55FE  [22]  A9 7D 9C 7E D4 1D 38 51 91 81 42 67 6E 1C 9D 1C 36 7C A5 3E 3A 2D
  vcan0  18FD56FE  [22]  77 C8 10 D2 A0 DE 8B D3 BE 15 9B 8C 14 3D 19 A6 C6 DC 6A 75 06 CC
  vcan0  18FD57FE  [22]  AD B1 DE 48 3F 0C 30 53 AA 64 5A CF 73 90 7B 9A 06 72 4D C8 E4 4A
  vcan0  18FD58FE  [22]  4E 7F 81 03 00 6F 3F BE 53 33 B9 C2 B0 0B EB 7A 07 42 3E 39 3B DC
  vcan0  18FD59FE  [22]  A7 CF 90 BB C5 99 75 D8 3B AA 9C 1A 45 36 7E 09 27 48 27 44 10 74
  vcan0  18FD5AFE  [22]  F0 C6 45 D5 18 FC 5E 27 A4 68 A3 9C 17 72 2C 0A 03 A9 34 B8 4A 75
  vcan0  18FD5BFE  [22]  80 17 7E F2 72 8F EC BF E9 14 03 60 7C BE 01 EA E7 2E 74 7A 15 D0
  vcan0  18FD5CFE  [22]  8F 40 51 D2 A5 6C 44 E0 CC 26 FC 1F 66 56 00 8F C9 5C F6 D4 95 73
  vcan0  18FD5DFE  [22]  3C F8 75 41 D4 93 B3 EE 3B 31 9C 7B F5 E6 D8 18 25 1A 25 35 5C 76
  vcan0  18FD5EFE  [22]  A3 DF A1 1D A1 15 90 00 24 14 C3 CE 10 A9 A3 93 4C E7 2D 0A 22 F1
  vcan0  18FD5FFE  [22]  BF 79 57 01 9F 22 C4 15 B9 1C F1 2F 2D 0C 74 CE 28 90 75 F6 6B 22
  vcan0  189FFEFE  [22]  93 63 DA B8 59 43 13 94 09 ED 33 C0 6C D5 FD E6 7D 71 7D B5 9D AE
  vcan0  18FD67FE  [08]  01 00 00 00 00 00 00 00
  vcan0  14FD53FE  [08]  17 0D 5B 83 1F 8D 00 00
  vcan0  189EFEFE  [08]  3B AC 31 C4 39 00 00 00
  vcan0  18FD80FE  [22]  10 04 CE 13 0F 65 F5 DA 97 32 5C F4 71 90 A6 E8 6B D7 84 C8 9B 05
  vcan0  18FD82FE  [22]  CC B2 C3 D6 5F 41 5E F2 1D AC B5 C7 B9 66 CB 8D BA 8B E2 F4 BD 1D
  vcan0  18FD90FE  [05]  A1 8E 0A A7 CD
  vcan0  18FD7EFE  [08]  1B 67 00 00 00 00 00 00
  vcan0  18FED9FE  [08]  05 18 37 41 61 56 9C E2
  vcan0  18A7FEFE  [08]  4C 29 35 52 60 2C 9D 43
  vcan0  18A6FEFE  [08]  EC 4A DB D7 43 13 15 93
  vcan0  18A5FEFE  [08]  08 0F A6 D5 84 BF 0B 37
  vcan0  18FD71FE  [08]  7B 22 24 AD 26 4C 70 02
  vcan0  18FEF5FE  [08]  17 8D CB D6 B4 01 A8 F5
  vcan0  18FEDEFE  [08]  CD 00 00 00 00 00 00 00
  vcan0  18FEAEFE  [08]  7A A2 A9 A2 DF 5A 03 00
  vcan0  18FEF9FE  [08]  AB C9 1B 1F 98 00 00 07
  vcan0  1CFEAAFE  [08]  A5 5E B3 C9 F5 00 00 00
  vcan0  18FE51FE  [08]  41 00 00 00 00 00 00 00
  vcan0  10FE6FFE  [08]  75 30 81 0F 19 81 4D 00
  vcan0  1CFEA8FE  [08]  12 00 00 00 00 00 00 00
  vcan0  1CFE8CFE  [08]  52 9B E8 0A A6 9E 3B 00
  vcan0  18FEFDFE  [08]  0C 14 F9 00 00 00 00 00
  vcan0  18E8FEFE  [08]  03 F8 00 00 84 35 B6 0C
  vcan0  18FE4EFE  [08]  72 00 00 00 00 00 00 00
  vcan0  18F012FE  [08]  77 28 88 01 BF 44 00 00
  vcan0  18FDAEFE  [08]  17 B6 02 00 00 00 00 00
  vcan0  0CF013FE  [08]  FA DA 53 5B 9C AA A8 BA
  vcan0  18FEF7FE  [08]  BC D0 C1 02 08 1A 98 E0
  vcan0  18FDA8FE  [08]  00 00 01 F5 00 00 00 00
  vcan0  18FDA9FE  [08]  00 00 01 47 00 00 00 00
  vcan0  1CFDA7FE  [08]  2D 08 00 00 00 00 00 00
  vcan0  0CFDA6FE  [08]  DB 20 E7 9C 1E 01 00 00
  vcan0  08F02DFE  [07]  03 D1 93 38 80 CC 71
  vcan0  18FCEAFE  [08]  01 AD 00 00 00 00 00 00
  vcan0  0CF029FE  [08]  2B CE BF 85 DD 22 6E 33
  vcan0  14FD16FE  [08]  3F F2 24 00 00 00 00 00
  vcan0  1897FEFE  [08]  1F 00 00 00 00 00 00 00
  vcan0  1898FEFE  [08]  13 00 00 00 00 00 00 00
  vcan0  08F02CFE  [08]  95 E8 A6 00 1C 00 00 00
  vcan0  18FD12FE  [08]  DD 0D 08 00 00 00 00 00
  vcan0  18FD13FE  [08]  E3 6E 40 00 00 00 00 00
  vcan0  1896FEFE  [08]  05 00 00 00 00 00 00 00
  vcan0  18FD01FE  [08]  19 21 F2 99 00 00 00 00
  vcan0  14FCEEFE  [08]  97 27 44 A1 AF EC A8 A4
  vcan0  0C99FEFE  [08]  E7 59 7E DE 4F 03 6D 0B
  vcan0  18FCE8FE  [08]  0F 00 00 00 00 00 00 00
  vcan0  18FD09FE  [08]  D6 CB 65 1F 5C 98 E3 3D
  vcan0  18F02EFE  [08]  A1 67 BC BE 00 00 00 00
  vcan0  18FCF1FE  [08]  26 61 00 00 00 00 00 00
  vcan0  18FCF3FE  [08]  0A F3 8B E2 00 00 00 00
  vcan0  18FCF2FE  [08]  13 A2 CE A1 A4 D2 60 35
  vcan0  18FCFFFE  [08]  32 3C 75 41 00 00 00 00
  vcan0  1CFD08FE  [08]  83 90 72 00 D0 E3 00 00
  vcan0  14FCFBFE  [08]  40 06 B5 15 00 00 00 00
  vcan0  1CFCFCFE  [08]  B7 BC 40 06 00 00 00 00
  vcan0  0CFD25FE  [08]  FA 26 E0 52 21 96 58 00
  vcan0  0CFD27FE  [08]  9D 70 DC CE 90 3B 60 00
  vcan0  0CFD29FE  [08]  07 07 80 08 03 CD 34 00
  vcan0  0CFD2BFE  [08]  DA 8A 96 C0 74 33 18 00
  vcan0  0CFD2DFE  [08]  04 CB 57 A2 0E 56 70 00
  vcan0  0CFD2FFE  [08]  10 82 5F 9F BC 84 70 00
  vcan0  0CFD23FE  [08]  D3 3D 42 11 74 C9 A0 00
  vcan0  18FCF0FE  [08]  1A 00 00 00 00 00 00 00
  vcan0  14FCEFFE  [08]  33 9C 00 00 00 00 00 00
  vcan0  14FD00FE  [08]  A5 10 1B 15 22 24 22 00
  vcan0  10FCFDFE  [08]  D3 E5 E1 9C 81 99 C7 2C
  vcan0  1CFCFAFE  [08]  40 06 40 06 00 00 00 00
  vcan0  1CFCFEFE  [08]  ED 77 D6 B0 45 D4 00 00
  vcan0  18FCE7FE  [08]  56 53 E4 00 D6 56 E7 00
  vcan0  18FD7CFE  [08]  00 6D A7 76 1A 46 3E 00
  vcan0  18FCF8FE  [08]  E4 CF B3 1B 97 A2 00 00
  vcan0  18FD1BFE  [08]  82 9B C5 2C 3B 86 19 00
  vcan0  18FCF9FE  [08]  2E EB 1A D0 90 01 00 00
  vcan0  18FD1CFE  [08]  36 00 77 D4 03 B3 1A 00
  vcan0  18FD04FE  [08]  E3 03 00 00 00 00 00 00
  vcan0  18FD05FE  [08]  32 E7 40 00 00 00 00 80
  vcan0  18FD06FE  [08]  14 03 00 00 00 00 00 00
  vcan0  18A2FEFE  [08]  6F 40 A7 E7 A9 13 1A A5
  vcan0  18A8FEFE  [08]  04 00 1F 00 00 00 00 00
  vcan0  18FD70FE  [08]  27 0D 32 2F 1B 00 00 00
  vcan0  18FD7FFE  [08]  29 00 00 00 00 00 00 00
  vcan0  18FD94FE  [08]  93 B6 97 C0 1A 11 F5 9B
  vcan0  18FD6FFE  [08]  40 06 19 65 50 3C 30 00
  vcan0  18FD88FE  [08]  C0 5D CE 7C 58 E4 60 80
  vcan0  18FD87FE  [08]  48 D4 76 E9 89 94 95 38
  vcan0  18FD86FE  [08]  87 F5 FB 82 34 16 FE D6
  vcan0  18FD85FE  [08]  54 70 2B 88 96 AF 72 03
  vcan0  18FD84FE  [08]  82 C9 F5 CB 34 81 AF 08
  vcan0  14FD81FE  [08]  1E 00 00 00 00 00 00 00
  vcan0  18FD77FE  [08]  F0 62 6A 2A 84 D3 38 D5
  vcan0  18FD76FE  [08]  1A F8 7F F5 F8 DE F4 22
  vcan0  18FD75FE  [08]  64 4C 4D AD 58 01 9C B3
  vcan0  18FD74FE  [08]  26 0C CF AA 04 97 50 75
  vcan0  18FD73FE  [08]  04 D9 1F 8F EC DE E9 16
  vcan0  18FD72FE  [08]  0C 08 F6 70 0B E4 E0 28
  vcan0  18A9FEFE  [08]  01 00 00 00 00 00 00 00
  vcan0  1CFD8AFE  [08]  BE 00 00 00 00 00 5F 00
  vcan0  18F01DFE  [08]  76 C2 60 00 95 66 01 8D
  vcan0  18FD6EFE  [08]  AB 3C B7 4C D8 FB 16 00
  vcan0  18FD83FE  [08]  05 00 00 00 00 00 00 00
  vcan0  18FD95FE  [08]  1E 33 F0 8E 00 00 00 00
  vcan0  18FD89FE  [08]  AC 2E 00 00 00 00 00 00
  vcan0  1CFEB7FE  [10]  9D F6 38 B6 14 D8 92 3F C9 57
  vcan0  18FE40FE  [08]  FA CF D0 23 6E 38 D4 3C
  vcan0  0CFE41FE  [08]  EB 8B C1 03 02 9F D2 3B
  vcan0  0CFE72FE  [08]  0A B6 00 1E 02 00 00 00
  vcan0  1CFE87FE  [08]  9D F8 D4 7B F4 F2 C2 54
  vcan0  1CFE86FE  [08]  36 9A DE E3 B9 98 D4 72
  vcan0  1CFE85FE  [08]  50 E2 8C 6A 7D 4A C7 6F
  vcan0  1CFE84FE  [08]  6A BE D6 47 F4 10 68 0B
  vcan0  1CFE83FE  [08]  30 8A DD 7B DA 11 30 8E
  vcan0  1CFE82FE  [08]  D7 08 AD D9 EC C2 47 8E
  vcan0  1CFE8AFE  [08]  D9 78 0D 33 00 00 00 00
  vcan0  1CFE89FE  [08]  80 A2 21 BF 33 04 40 11
  vcan0  1CFE88FE  [08]  88 35 A7 6F 3A 0F 4A B0
  vcan0  18FDC8FE  [08]  0E 00 00 00 00 00 00 00
  vcan0  18FDCAFE  [08]  0F 00 00 00 00 00 00 00
  vcan0  18FEDCFE  [08]  03 A7 17 88 E3 AF 85 3E
  vcan0  1CFEA5FE  [08]  E1 C4 83 D0 8D 00 00 00
  vcan0  18FEA6FE  [08]  54 AE D7 3E 38 EC 1D D4
  vcan0  18FDD0FE  [08]  AA 4F 60 8C 93 9A 24 F2
  vcan0  18FEF6FE  [08]  2A 75 77 BE 24 18 D4 08
  vcan0  18FE6DFE  [08]  86 12 A2 0F CE 00 00 00
  vcan0  08FE6EFE  [08]  32 CE 86 36 11 C2 35 1C
  vcan0  18F008FE  [08]  9C 96 15 00 00 00 00 00
  vcan0  18FEE5FE  [08]  78 73 93 7C 13 20 69 1A
  vcan0  0CFDE6FE  [08]  00 00 DD 09 00 00 00 00
  vcan0  1CFEB8FE  [22]  89 FC 72 A0 88 03 29 EE 60 3F 45 E0 6E A1 EE B7 77 27 F7 D7 FC 6E
  vcan0  1CFE8BFE  [08]  57 EA 59 19 81 49 E9 91
  vcan0  1CFE81FE  [08]  51 AE 61 52 D0 50 02 AC
  vcan0  1CFEB2FE  [08]  5D 27 67 B6 66 E7 1C 75
  vcan0  18FE55FE  [08]  45 79 00 00 00 00 00 00
  vcan0  1CFEAFFE  [08]  E2 9B 16 BE E5 94 10 A1
  vcan0  18FD9CFE  [08]  D3 9D CD 20 0C 2E B5 E7
  vcan0  18FD9DFE  [08]  57 80 68 EB C0 EB BB 5E
  vcan0  18FDA4FE  [08]  4F 1C 9C 1E 0B 3B 03 00
  vcan0  10FDA2FE  [08]  94 57 59 0E 88 00 BC D8
  vcan0  18FDAAFE  [08]  D1 6E B6 DB DD EE 89 5B
  vcan0  10FDA3FE  [08]  40 06 0A 0A 40 06 B8 55
  vcan0  18FDA5FE  [08]  FD 41 2B CE 98 83 A4 0B
  vcan0  18FD9BFE  [08]  EA 94 E4 0C 1C 01 00 00
  vcan0  0CF01CFE  [08]  7B C3 84 B3 00 00 00 00
  vcan0  10F01AFE  [08]  80 EC BA 92 AB E5 5F C8
  vcan0  0CF019FE  [08]  9F 1D 56 11 12 4C 3C 83
  vcan0  0CF018FE  [08]  96 56 F6 07 47 F0 02 39
  vcan0  0CF017FE  [08]  7D 50 51 BB BD 2E 43 C6
  vcan0  0CF016FE  [08]  C0 6E 5D 6E C8 E0 00 00
  vcan0  0CF015FE  [08]  E7 6A 62 CC AC 50 03 00
  vcan0  0CF014FE  [08]  DE B2 4E B6 CB 03 00 00
  vcan0  0C02FEFE  [08]  55 01 4A E4 80 2C 00 00
  vcan0  18FEC9FE  [08]  00 00 04 00 F6 F8 00 00
  vcan0  1803FEFE  [08]  45 01 CC 38 9D AD 81 00
  vcan0  18FEC4FE  [08]  50 40 04 01 2F 23 61 C5
  vcan0  0CFEC6FE  [08]  54 30 5F F7 AB 67 52 E9
  vcan0  18E2FEFE  [08]  00 03 00 00 00 00 00 00
  vcan0  18FE5DFE  [08]  11 C3 59 3F FA 00 00 00
  vcan0  0CFE5FFE  [08]  06 E3 C8 F7 DE 7C 1C 02
  vcan0  18FE61FE  [08]  E4 D6 04 15 92 2A 05 A1
  vcan0  18FE63FE  [08]  80 EC 26 41 0A E9 13 00
  vcan0  18FE65FE  [08]  A7 A5 00 00 00 00 00 00
  vcan0  18E1FEFE  [08]  01 00 00 00 00 00 00 00
  vcan0  18FEC8FE  [08]  04 00 7C F3 50 C0 96 00
  vcan0  0CFE60FE  [08]  BF 35 E1 7E 60 E1 6C 70
  vcan0  18FE62FE  [08]  82 14 41 55 00 00 00 00
  vcan0  18FE64FE  [08]  50 41 51 04 54 04 00 00
  vcan0  18DBFEFE  [08]  30 D1 22 00 00 00 00 00
  vcan0  18DAFEFE  [08]  28 00 00 00 00 00 00 00
  vcan0  18EDFEFE  [08]  02 80 01 00 00 00 00 00
  vcan0  18E4FEFE  [08]  C5 7F 00 51 07 13 C5 00
  vcan0  18E5FEFE  [08]  44 0E 40 04 52 68 03 55
  vcan0  18FE5CFE  [08]  26 7A 3C 3C 00 00 00 00
  vcan0  18FE5EFE  [08]  2B B5 78 C6 C8 01 00 00
  vcan0  18FDB8FE  [08]  9A 23 48 05 75 05 66 12
  vcan0  0C04FEFE  [08]  AF 61 36 0A 00 00 00 A9
  vcan0  18FEFFFE  [08]  00 00 00 00 00 00 00 00
  vcan0  18FEEAFE  [08]  00 66 3A 82 20 C9 43 00
  vcan0  18FE52FE  [08]  0E DC 32 27 00 00 00 00
  vcan0  1CFE8DFE  [08]  36 0D 03 2B F3 B5 1B 10
  vcan0  18FEF3FE  [08]  1E 00 00 00 1B 00 00 00
  vcan0  18FEECFE  [08]  99 00 00 00 00 00 00 00
  vcan0  18FEE7FE  [08]  23 FA 71 B1 21 B1 04 AB
  vcan0  18FE68FE  [08]  D4 03 49 00 00 00 00 00
  vcan0  18FEE8FE  [08]  21 F1 D7 03 F9 6D FB 07
  vcan0  18FEC1FE  [08]  21 48 07 00 03 D9 36 00
  vcan0  18F009FE  [08]  DE 5F 84 97 15 B9 06 0A
  vcan0  18FE4FFE  [08]  3F 33 00 00 00 00 00 00
  vcan0  18FEE0FE  [08]  E8 AE D5 D5 7C 39 08 15
  vcan0  1CFEB6FE  [08]  9B A2 BD FD 84 DC 00 00
  vcan0  1CFEB0FE  [20]  70 3C 66 87 DA 5C AB C8 CB F8 36 32 3A 4C 88 14 A7 6D 24 1C
  vcan0  1CFEB4FE  [16]  F2 95 87 5A 57 8B B0 16 83 1A FC EE 5F 07 48 91
  vcan0  1CFEB5FE  [08]  3A B2 FF 04 AE F1 D8 82
  vcan0  18FDC0FE  [08]  04 5C 23 00 00 00 00 00
  vcan0  18FDBAFE  [08]  00 07 00 00 00 00 00 00
  vcan0  18FDBBFE  [08]  B0 B3 C9 05 1A 62 0B 2B
  vcan0  18FDBCFE  [15]  1E 05 10 20 2B 3C 32 EE 2C C3 37 06 85 00 00
  vcan0  18FDBDFE  [08]  BC FB 4B 78 00 00 00 00
  vcan0  18FDBFFE  [08]  3B 00 00 00 00 00 00 00
  vcan0  18FDBEFE  [04]  04 BC 05 0C
  vcan0  18AEFEFE  [08]  22 F8 00 00 00 00 00 00
  vcan0  18FDB9FE  [08]  22 35 00 00 00 00 00 00
  vcan0  1CFE7AFE  [08]  A9 BC D1 E4 EA 00 00 00
  vcan0  1CFE79FE  [08]  A4 22 03 93 D2 BC 00 00
  vcan0  1CFE78FE  [08]  C9 07 12 06 12 00 00 00
  vcan0  1CFEBBFE  [16]  42 8A 6F DB 6B 6D 61 E2 41 F2 31 44 C3 7E 2C 74
  vcan0  1CFEBAFE  [12]  81 07 EA 48 6E D9 D1 C7 35 24 6B 09
  vcan0  18D5FEFE  [08]  5E 58 94 73 A6 E7 D1 D3
  vcan0  18FEE6FE  [08]  40 26 37 46 E1 BF C7 AF
  vcan0  18FE96FE  [08]  03 2F C4 03 D1 7B 0C 86
  vcan0  0CFE6CFE  [08]  9B 61 03 CD FC D1 BA 09
  vcan0  18FDD3FE  [08]  34 8C 5A 39 15 7D 4D E7
  vcan0  18FE97FE  [08]  D3 EB 31 80 3F 2A 9A CB
  vcan0  18FE98FE  [08]  4B 46 62 B5 59 70 D7 59
  vcan0  18FE99FE  [08]  1D 65 13 E0 42 94 B1 53
  vcan0  18FE9AFE  [08]  31 BC 1C 79 15 F0 57 A9
  vcan0  1CFE9BFE  [08]  5B 01 54 06 BC B6 41 00
  vcan0  18FE4BFE  [08]  AF 4E 00 00 00 00 00 00
  vcan0  18FEE2FE  [08]  30 67 61 B5 00 00 00 00
  vcan0  18FEDDFE  [08]  E8 7D 94 40 00 00 00 00
  vcan0  1CFE4DFE  [08]  1C D0 26 2B 00 00 00 00
  vcan0  18FDE2FE  [08]  33 CA 77 F4 EC 6A 00 00
  vcan0  18FE8FFE  [08]  EC 1B 00 00 00 00 00 00
  vcan0  18FEDAFE  [08]  72 68 AE 72 00 00 00 00
  vcan0  18FEE4FE  [08]  46 80 16 02 57 80 45 0D
  vcan0  18FEC0FE  [08]  0E 62 69 2F BF CB 7A F6
  vcan0  1CFE8EFE  [08]  A9 AA 5F 00 00 00 00 00
  vcan0  18FE53FE  [08]  B5 53 32 0D E9 4E 2A 68
  vcan0  18FEFBFE  [08]  09 25 00 00 00 00 00 00
  vcan0  1CDEFEFE  [08]  0B C2 0B A7 00 00 00 00
  vcan0  18FEE1FE  [19]  23 DD 32 12 E8 51 53 E0 B0 AC 18 12 3A 79 3D 0D CF 57 D7
  vcan0  1CFE95FE  [08]  77 C3 C3 E3 00 00 00 00
  vcan0  18FEF0FE  [08]  48 93 A6 DA 06 26 B8 38
  vcan0  18FDCDFE  [08]  57 30 74 48 DE 9C 20 00
  vcan0  18FDCBFE  [08]  11 00 EF 0E 00 00 00 00
  vcan0  18FDC7FE  [08]  17 01 F1 F0 00 00 00 00
  vcan0  0CFDCCFE  [08]  91 22 57 F2 F2 00 00 00
  vcan0  18FDE5FE  [08]  6D 16 CB E7 E7 9A 41 3F
  vcan0  18FE4CFE  [08]  5F 00 C0 83 00 00 00 0F
  vcan0  18FDDCFE  [08]  A4 00 00 00 00 00 00 00
  vcan0  18FE9CFE  [08]  44 18 28 AF 53 58 00 00
  vcan0  18FE9DFE  [08]  F3 30 94 4D A7 03 1E 3F
  vcan0  18FE9EFE  [08]  95 EC 51 5D C1 F9 D2 E5
  vcan0  10FE76FE  [08]  20 0F 1F 00 00 00 00 00
  vcan0  0CFE75FE  [08]  0C ED 00 00 00 7C 35 00
  vcan0  0CFE71FE  [08]  21 47 8F 53 11 40 20 00
  vcan0  1CFEB9FE  [22]  D8 F7 E6 07 C0 FD C9 3A C8 5C 83 03 50 8F CD DE 32 57 A4 29 63 90
  vcan0  0CFE74FE  [08]  BE 56 00 00 00 00 00 00
  vcan0  0CF00DFE  [08]  EF 22 2E 20 AF 00 00 00
  vcan0  0CFE73FE  [08]  CF DC 00 00 00 00 00 00
  vcan0  1CFEB3FE  [08]  DC 52 BB 3E B5 DA 28 00
  vcan0  18FEF2FE  [08]  69 06 C4 E4 3B CC A4 A0
  vcan0  18FEE9FE  [08]  85 E3 DE C0 B0 B1 99 99
  vcan0  1CFDDFFE  [08]  02 00 00 00 00 00 00 00
  vcan0  1CFDD1FE  [08]  0D 67 00 00 00 00 00 00
  vcan0  18FE5BFE  [08]  90 00 00 00 00 00 00 00
  vcan0  10F007FE  [08]  39 00 00 00 00 00 00 00
  vcan0  1CFE91FE  [08]  04 00 00 00 00 00 00 00
  vcan0  18FEBDFE  [08]  82 0F 11 85 C4 F1 87 00
  vcan0  18FE90FE  [33]  B1 13 54 44 E4 C0 A1 46 45 8F 30 58 8B 65 13 E5 F3 F8 41 90 0B 3F 2B 92 F3 B5 96 C3 B8 74 B0 71 96
  vcan0  18FE4AFE  [08]  D5 97 1F 83 F1 09 00 00
  vcan0  1CFEC3FE  [08]  08 1C 00 00 00 00 00 00
  vcan0  1CFEC5FE  [08]  AA A7 00 00 00 00 00 00
  vcan0  1CFEC7FE  [08]  CD 83 1C 88 3B 42 00 00
  vcan0  0CF002FE  [08]  46 AA 8B 33 10 13 94 4A
  vcan0  18FE69FE  [08]  4E E3 E1 E9 49 89 B8 75
  vcan0  18FEA4FE  [08]  D2 3D 45 4C 83 D3 DC 1A
  vcan0  18FEEEFE  [08]  91 19 40 47 28 CE F0 22
  vcan0  18FE07FE  [08]  1F 20 C4 23 00 00 00 00
  vcan0  18F00BFE  [08]  5D B9 50 23 F2 01 00 00
  vcan0  1CFEC2FE  [08]  01 00 00 00 00 00 00 00
  vcan0  18F000FE  [08]  BD C1 12 75 D3 18 53 BE
  vcan0  1CFE9FFE  [08]  4B D3 79 C3 9C 49 67 04
  vcan0  18FEA0FE  [08]  1B 33 80 57 AA ED B0 29
  vcan0  1CFEA1FE  [08]  91 CF B9 E5 E7 26 4A 28
  vcan0  1CFEA2FE  [08]  17 1F 79 ED EE A2 9C 74
  vcan0  1CFEA3FE  [08]  AD 41 88 B7 26 1D 92 EA
  vcan0  18FDE4FE  [08]  9B 00 00 00 00 00 00 00
  vcan0  18FDD2FE  [08]  70 FA 56 00 00 00 00 00
  vcan0  18FDE3FE  [08]  E9 00 00 00 00 00 00 00
  vcan0  1CFEA9FE  [08]  BB F5 19 4B FA 07 85 80
  vcan0  0CFDDBFE  [08]  35 06 FA 4C 04 9F B8 00
  vcan0  0CFDD9FE  [08]  7F 0F 2B A0 D9 2E 5C 00
  vcan0  0CFDD7FE  [08]  8F 53 66 B6 5B 7A CC 00
  vcan0  1CFE92FE  [08]  70 1D B4 DC DF DC 73 B8
  vcan0  1CFEB1FE  [08]  2E F1 8B 1B 87 55 50 92
  vcan0  0CF00AFE  [08]  2C F1 3A 26 A4 B9 00 00
  vcan0  18FE6AFE  [07]  6A 8C 49 0A 0A 2D 13
  vcan0  18FDC1FE  [08]  52 40 71 93 76 9D 00 00
  vcan0  18FEDBFE  [08]  BE 3B D5 93 45 F8 A0 20
  vcan0  18FEEFFE  [08]  32 F3 A5 48 D9 A1 F4 05
  vcan0  1CFE93FE  [08]  86 4F 01 00 00 00 00 00
  vcan0  18FDD5FE  [08]  84 75 8F CA 0F 3F 12 14
  vcan0  1CFEBEFE  [08]  E5 57 B2 5B 0D 9B 00 00
  vcan0  0CF003FE  [08]  C2 AD 54 74 13 FE 93 29
  vcan0  18FDC5FE  [08]  D7 7D 6C AE 00 00 00 00
  vcan0  18FE54FE  [08]  22 8E 39 26 23 5F E8 BB
  vcan0  18FEE3FE  [39]  D8 07 C1 66 2F 7E 34 A8 CD 5F 54 D2 B5 F3 C6 A4 95 2C 04 EB D0 8F 13 AC CB 19 14 AF FD 04 CF 29 3A EC 01 01 01 01 01
  vcan0  18FDC4FE  [08]  7C 28 EE 03 00 00 00 00
  vcan0  1CFEACFE  [08]  79 35 3C 21 9F E8 8C C1
  vcan0  18FEADFE  [08]  81 5D 8C 64 1F B3 49 1B
  vcan0  18FEBFFE  [08]  F3 3C 74 89 F5 D6 A0 6E
  vcan0  18F001FE  [08]  EE 73 63 75 89 D4 68 34
  vcan0  18F006FE  [08]  79 18 2E 03 00 00 00 00
  vcan0  18FE94FE  [08]  EC F1 46 00 00 00 00 00
  vcan0  18FE6BFE  [08]  C0 75 00 00 00 00 00 00
  vcan0  18FEFCFE  [08]  EE 83 0A 22 4C 6B C9 00
  vcan0  18FDC6FE  [08]  06 50 00 00 00 00 00 00
  vcan0  18FE70FE  [08]  19 8E 33 3F 00 00 00 00
  vcan0  18CFFEFE  [08]  38 2B 94 52 49 6A 4E B6
  vcan0  1CFE80FE  [08]  DC 20 92 CA 00 00 00 00
  vcan0  1CFE7FFE  [08]  5F 3C 91 C8 F0 8D 8E 1A
  vcan0  1CFE7EFE  [08]  EA 74 9D 7E 46 61 47 B6
  vcan0  1CFE7DFE  [08]  29 13 4A 5B CC BF 0B A6
  vcan0  1CFE7CFE  [08]  CE 6C 64 4F 10 77 A8 02
  vcan0  1CFE7BFE  [08]  73 D5 03 83 88 58 6C 31
  vcan0  1CFDC9FE  [08]  3F 61 00 00 00 00 00 00
  vcan0  18FDD4FE  [08]  05 02 01 00 00 00 00 00
  vcan0  18E0FEFE  [08]  D6 24 0C EF D4 79 42 00
  vcan0  18D0FEFE  [08]  53 00 00 00 00 00 00 00
  vcan0  18FEEBFE  [08]  72 C7 D3 AF 00 00 00 00
  vcan0  18FEF1FE  [08]  DF 2C 9B 37 79 E3 93 51
  vcan0  18FEEDFE  [08]  74 D9 EB 00 00 00 00 00
  vcan0  18FE67FE  [08]  E3 0F 00 00 00 00 00 00
  vcan0  1CFEBCFE  [16]  1B 07 41 9D BE AB B8 BC 1E 89 EA A9 27 D7 37 52
  vcan0  18FDE1FE  [08]  06 00 00 00 00 00 00 00
  vcan0  18FE50FE  [08]  6E 6B 00 00 00 00 00 00
  vcan0  18FD07FE  [08]  1E 78 22 00 00 00 00 00
  vcan0  1CFD18FE  [08]  7E 75 43 FF 65 2E 48 36
  vcan0  00F02BFE  [08]  02 00 00 00 00 00 00 A9
  vcan0  18FCF5FE  [08]  61 A3 0A 28 82 00 00 00
  vcan0  18FCF4FE  [08]  75 19 AD 19 2D 51 14 00
  vcan0  18FCF7FE  [08]  D3 C7 48 50 56 00 00 00
  vcan0  18FCF6FE  [08]  21 64 1B 6A 2E 00 00 00
  vcan0  0CFD26FE  [08]  02 CB 1E 85 20 F1 05 83
  vcan0  0CFD28FE  [08]  29 C6 68 98 80 CF C7 68
  vcan0  0CFD2AFE  [08]  79 10 4D 59 70 24 30 20
  vcan0  0CFD2CFE  [08]  33 98 CC 55 20 04 D5 D0
  vcan0  0CFD2EFE  [08]  B2 9D ED 4F 20 3C 18 08
  vcan0  0CFD30FE  [08]  32 C5 9F 19 80 1C 9C 6E
  vcan0  0CFD24FE  [08]  95 F7 C6 0A 00 6C 73 32
  vcan0  14FD17FE  [08]  8A 7B 3C 00 00 00 00 00
  vcan0  18FD14FE  [08]  00 BC BB 8A 4F 00 00 00
  vcan0  18FD15FE  [08]  10 D4 C3 DF F1 00 00 00
  vcan0  18FD1DFE  [08]  C3 48 1B 64 00 00 00 00
  vcan0  18FD1EFE  [08]  DD C9 2E A0 00 00 00 00
  vcan0  18FCEDFE  [08]  62 81 C3 7A 00 00 00 00
  vcan0  18FD45FE  [08]  4B EE 27 59 5C 3F 10 05
  vcan0  0CFD0AFE  [08]  9B 3D 27 5C 00 00 00 00
  vcan0  0CFD0BFE  [08]  71 E0 E1 05 3C 00 00 00
  vcan0  0CFD0CFE  [08]  01 E5 BA DC 00 00 00 00
  vcan0  0CFD0DFE  [08]  CA 62 41 05 F7 00 00 00
  vcan0  18FD44FE  [08]  E2 1E 0B 40 06 00 00 00
  vcan0  0095FEFE  [08]  B4 EF 5A BA 00 00 00 00
  vcan0  18FD1AFE  [08]  F9 C7 DA 83 00 00 00 00
  vcan0  18FD46FE  [08]  00 72 50 8E 66 9B 01 40
  vcan0  18FE56FE  [08]  00 99 88 F3 2D A9 60 0F
  vcan0  0CFD0EFE  [08]  CA 03 A4 A9 00 00 00 00
  vcan0  0CFD0FFE  [08]  7F 68 4D 03 4B 00 00 00
  vcan0  0CFD10FE  [08]  84 5B 02 19 00 00 00 00
  vcan0  0CFD11FE  [08]  C4 D5 AE 01 EE 00 00 00
  vcan0  0094FEFE  [08]  AD 55 94 39 00 00 00 00
  vcan0  18FCE9FE  [08]  A5 00 00 00 00 00 00 00
  vcan0  0CF02AFE  [08]  8C C2 6B 1C 58 C3 25 C3
  vcan0  18FCEBFE  [08]  0A 00 00 00 00 00 00 00
  vcan0  18FCECFE  [08]  07 00 00 00 00 00 00 00
  vcan0  00FD37FE  [08]  C3 A8 51 D8 BF 00 00 00
  vcan0  18FD34FE  [08]  EF 94 DF 79 02 04 00 01
  vcan0  18FD35FE  [08]  00 6C 03 D2 19 0A 40 12
  vcan0  18FD33FE  [08]  A4 01 64 6B C4 03 38 00
  vcan0  18FD36FE  [08]  C4 AD 83 0D 05 01 00 00
  vcan0  18FD38FE  [08]  E6 A5 10 94 D7 08 00 00
  vcan0  18FD39FE  [08]  47 C2 0E 00 00 00 00 00
  vcan0  00FD3AFE  [08]  74 CD 88 D6 00 00 00 00
  vcan0  0CF027FE  [08]  45 6D 04 3F 31 00 00 00
  vcan0  18FD3BFE  [08]  00 98 1E 28 0E 3C 46 5A
  vcan0  0CF026FE  [08]  A8 21 00 AC 09 AE 00 00
  vcan0  0CF028FE  [08]  F4 D3 07 11 0A 01 00 00
  vcan0  18FD21FE  [08]  F7 38 14 6C BA 7E A3 18
  vcan0  18FD1FFE  [08]  7E 7F C2 54 8E CD 59 7B
  vcan0  18FD3DFE  [08]  80 8F C1 5B 14 1D 6D 12
  vcan0  18FD3CFE  [08]  2F 96 BA 46 E4 01 5E 00
  vcan0  14FD3EFE  [08]  95 00 10 C6 DD 0D 00 00
  vcan0  18FD3FFE  [08]  B9 32 00 00 00 00 00 00
  vcan0  18FD40FE  [08]  3C 91 03 42 00 00 00 00
  vcan0  0CF024FE  [08]  F3 4B 09 9F D5 00 00 00
  vcan0  18FD41FE  [08]  15 DF 8E 01 5D 4A 4D 61
  vcan0  0CF023FE  [08]  F6 63 0E 6C 8B 2A 00 00
  vcan0  0CF025FE  [08]  03 74 0A 3B 05 02 00 00
  vcan0  18FD22FE  [08]  44 75 F5 00 A6 19 42 02
  vcan0  18FD60FE  [08]  B4 92 2F CC 3E 00 00 00
  vcan0  18FD61FE  [08]  6F 7E 64 D5 69 91 00 00
  vcan0  18FD62FE  [08]  4E 00 00 00 00 00 00 00
  vcan0  18FD63FE  [08]  CB C1 A4 96 00 00 00 00
  vcan0  18FD64FE  [08]  4A F2 2C ED 18 2D 00 00
  vcan0  18A0FEFE  [08]  7C 5C 00 00 00 00 00 00
  vcan0  08A1FEFE  [09]  5D 28 43 29 E2 5F 29 45 D1
  vcan0  18FE66FE  [08]  01 00 00 00 00 00 00 00
  vcan0  0CFDDAFE  [08]  38 01 61 CF D0 26 4A 23
  vcan0  0CFDD8FE  [08]  11 02 A9 A5 50 FD BA A4
  vcan0  0CFDD6FE  [08]  68 C5 09 19 40 AE 93 65
  vcan0  18FEFAFE  [08]  58 88 54 05 00 00 00 00
  vcan0  18FEFEFE  [08]  57 00 00 00 00 00 00 00
  vcan0  18FD20FE  [08]  D3 32 88 52 A1 C4 24 0A
  vcan0  18A3FEFE  [08]  4B 92 A4 2C 80 73 00 00
  vcan0  1CFD47FE  [08]  00 00 00 00 00 00 00 00
  vcan0  189BFEFE  [08]  78 A8 13 B0 00 00 00 00
  vcan0  18FD48FE  [08]  EF 04 2D 05 0F 00 00 00
  vcan0  18FD49FE  [08]  B4 05 4B 02 0F 00 00 00
  vcan0  18F021FE  [08]  11 51 98 6E 30 CB BC 00
  vcan0  10FD52FE  [08]  03 0B 27 00 00 00 00 00
  vcan0  189CFEFE  [08]  F0 B4 47 C9 76 E7 18 72
  vcan0  189DFEFE  [08]  95 8A 24 0E 22 D1 B5 8B
  vcan0  0C08FEFE  [08]  EB 93 A2 75 4C 46 E1 4F
  vcan0  18FD9FFE  [08]  E0 C8 5D 33 A6 87 AF 06
  vcan0  18FD6DFE  [08]  4C 39 39 CE 99 13 3E C0
  vcan0  18FDA1FE  [08]  02 1D B2 59 81 4C 59 0A
  vcan0  18FD65FE  [08]  D1 C0 04 40 06 7E 00 00
  vcan0  18FD8CFE  [08]  9F 42 11 10 00 00 00 00
  vcan0  18FD98FE  [36]  95 9F BE DE 3F E4 20 20 1E FA D6 25 32 70 06 D1 A1 61 D8 1F 52 03 31 94 BA 87 D2 B7 52 FC AA 70 8F C9 A8 2F
  vcan0  18F00EFE  [08]  66 C3 60 11 0A 23 0C 12
  vcan0  18FDB4FE  [08]  5F EA B7 13 18 0A 00 00
  vcan0  1CDCFEFE  [08]  79 72 00 00 00 00 00 00
  vcan0  1CDDFEFE  [08]  92 3A 00 00 00 00 00 00
  vcan0  1CFEA7FE  [08]  6D 3D 0F BC FA 00 00 00
  vcan0  0CD1FEFE  [08]  74 52 6C F7 48 36 01 D5
  vcan0  0CFE57FE  [08]  EE 66 0B 25 00 00 00 00
  vcan0  18A4FEFE  [12]  D9 75 B8 45 BB 54 2A DE EB 0D D4 19
  vcan0  18FDB2FE  [08]  2E DD C3 A5 7A 01 BD 48
  vcan0  18F00FFE  [08]  6D 2A 6F 7B A2 57 18 0A
  vcan0  18FDB3FE  [08]  67 4B 80 11 17 1A 00 00
  vcan0  18FD7BFE  [08]  04 04 BF 8C B6 BB 40 06
  vcan0  18FD79FE  [32]  92 35 62 BC F8 4D 93 6E 57 D5 BC 95 90 9A 0A 82 FA 7A 2D 41 D9 66 21 85 02 4F 87 B7 4E C1 D3 82
  vcan0  18FD9EFE  [08]  E3 88 6E 94 C2 52 AB 99
  vcan0  18FD6CFE  [08]  CD 39 AC B8 93 38 8B 28
  vcan0  18FDA0FE  [08]  AB DD 4A 05 C4 E0 49 0A
  vcan0  18FD8BFE  [08]  E4 73 F0 1B 00 00 00 00
  vcan0  18FD99FE  [36]  E9 14 ED 08 69 CD 60 6B 56 B7 59 D5 28 17 CF 43 8B 5A E7 AC E6 E7 3C 0D EE F8 13 95 23 B0 D4 FE D4 87 AF 25
  vcan0  18F010FE  [08]  5E C9 7D A7 8D 3B 17 07
  vcan0  18FDB1FE  [08]  C1 6F 83 07 17 1F 00 00
  vcan0  18FDAFFE  [08]  34 08 D3 AD AE F2 86 4E
  vcan0  18F011FE  [08]  83 B5 DA 88 3E 51 15 0B
  vcan0  18FDB0FE  [08]  9C 0C A4 73 0B 18 00 00
  vcan0  18FD7AFE  [08]  04 04 1C A7 C1 53 40 06
  vcan0  18FD78FE  [32]  0D 00 BF 71 4E C5 E4 A0 95 46 4A E2 AF FE 06 28 EB 40 D9 B8 EC 8C 82 CB 52 72 3E E4 2D 58 1B 70
  vcan0  0CFD92FE  [08]  16 F3 A5 FB 42 23 00 78
  vcan0  18FD66FE  [08]  24 71 A4 0D D5 C6 C6 00
  vcan0  14FD68FE  [08]  C0 3F C9 73 26 2B 00 00
  vcan0  1807FEFE  [08]  7E 26 14 97 C1 33 36 00
  vcan0  18FE58FE  [08]  49 03 72 D7 77 68 7E 7F
  vcan0  18FE59FE  [08]  EB 9D 75 93 D2 6C 2F 13
  vcan0  0CD2FEFE  [08]  53 EF 82 B8 B6 4A 71 98
  vcan0  0CFE5AFE  [08]  7F 23 09 83 E3 C0 4A 07
  vcan0  18FED5FE  [03]  5F 4E 73
  vcan0  1CFE77FE  [08]  FC 8B B6 55 73 C1 00 00
  vcan0  18FDE0FE  [08]  52 7E 49 79 00 00 00 00
  vcan0  18FECFFE  [22]  A0 D0 DA BE BE F9 2D 50 25 81 AB 69 50 63 01 1D E3 43 19 38 27 89
  vcan0  18FECDFE  [13]  AE 47 72 77 38 0F 6B AF E4 81 C0 0A C7
  vcan0  18FECCFE  [00] 
  vcan0  18FDB7FE  [13]  64 48 0D 46 4B 00 00 00 00 00 00 00 00
  vcan0  18FDB6FE  [12]  62 27 61 62 BD E0 22 E8 78 EB A6 1B
  vcan0  18FDB5FE  [22]  93 89 1C 63 FE 6C 6D 23 A4 E4 3F E7 71 E9 6B 1F 37 AA 57 21 63 AE
  vcan0  18C3FEFE  [08]  AE 86 00 00 00 49 62 03
  vcan0  18C1FEFE  [08]  BF 93 C7 6B B9 C3 9E 9C
  vcan0  18C2FEFE  [11]  C6 3D 88 1A 56 26 06 83 3B 21 6A
  vcan0  18FECBFE  [22]  DD CD A2 60 6E 4D 63 41 8F D5 B7 E2 93 93 23 4C 07 CB 0B E8 30 12
  vcan0  18D3FEFE  [20]  61 06 E7 EF 76 D8 8A B1 E7 2A BF 3A 64 B2 78 10 AE 1B EA 79
  vcan0  18D6FEFE  [01]  00
  vcan0  18D7FEFE  [02]  00 00
  vcan0  18D8FEFE  [08]  70 0E 00 01 00 00 FF 00
  vcan0  18DFFEFE  [08]  5B 75 40 0F 1D DA 00 00
  vcan0  18FED4FE  [22]  D1 AB FC A5 6C CA 0E 5E 58 20 FB 00 ED 97 B5 30 C4 66 25 50 00 00
  vcan0  18FED3FE  [00] 
  vcan0  18FED2FE  [08]  CC 0A 59 A4 F6 7C 18 22
  vcan0  18FECAFE  [22]  F4 6F DD E4 13 5F 08 CD AA 51 74 7D 94 6D F2 87 7E 55 93 C5 34 AD
  vcan0  18FDF7FE  [08]  D5 21 2F 06 03 00 03 00
  vcan0  18FDF8FE  [08]  12 1D 4F BD 3A 46 20 06
  vcan0  18FDEDFE  [08]  C3 F7 0C 47 5F 8C 02 04
  vcan0  18FDEEFE  [08]  3E 44 FE AA 02 00 01 00
  vcan0  18FDEFFE  [08]  0C 5D 40 E8 CD 76 AD 51
  vcan0  18FDF0FE  [08]  EB 9C 08 0C 42 01 3D 86
  vcan0  18FDF1FE  [08]  E9 95 5A 8D 03 00 00 00
  vcan0  18FDF2FE  [08]  2A BB A4 0F F8 18 F9 87
  vcan0  18FDF3FE  [08]  F6 79 5D 15 F2 01 6F E9
  vcan0  18FDF4FE  [08]  82 C2 AB 70 03 00 03 00
  vcan0  18FDF5FE  [08]  F2 49 7E 44 A2 38 50 60
  vcan0  18FDF6FE  [08]  03 AD E2 B9 05 00 BF 76
  vcan0  18FDF9FE  [08]  F3 9E 4B 99 3D 01 C5 34
  vcan0  18FE04FE  [08]  49 14 B7 BB 03 00 00 00
  vcan0  18FE05FE  [08]  91 6C 3A 8B 6C D9 D6 66
  vcan0  18FDFAFE  [08]  77 7F 11 01 93 1B A1 F8
  vcan0  18FDFBFE  [08]  4D CD 14 71 02 00 02 00
  vcan0  18FDFCFE  [08]  6F 84 94 0D 06 A6 66 0D
  vcan0  18FDFDFE  [08]  2E E1 EA 5A 3B 01 5B 0C
  vcan0  18FDFEFE  [08]  78 E5 66 4B 00 00 01 00
  vcan0  18FDFFFE  [08]  CD BB 6E 52 72 35 54 A5
  vcan0  18FE00FE  [08]  78 1E 2D A3 EC 01 F0 09
  vcan0  18FE01FE  [08]  1C F5 EC 2F 01 00 00 00
  vcan0  18FE02FE  [08]  95 2C 74 2F 35 24 E4 B4
  vcan0  18FE03FE  [08]  9C DA C1 44 F0 00 72 4A
  vcan0  18FE06FE  [08]  8D E3 20 63 5B 00 2E EC
  vcan0  18FDE7FE  [08]  B7 03 1A 00 00 00 00 00
  vcan0  18FDE9FE  [08]  2A 45 87 BC A5 00 00 00
  vcan0  18FDEAFE  [08]  57 64 DE 7A 37 01 00 00
  vcan0  18FDEBFE  [08]  CE 48 21 79 E9 01 00 00
  vcan0  18FDE8FE  [08]  33 01 9D 01 00 00 00 00
  vcan0  18FDECFE  [08]  BF EC BC 87 AD 00 00 00
  vcan0  1CFE0DFE  [08]  00 00 00 00 00 00 00 00
  vcan0  18FED8FE  [09]  E0 04 66 00 25 76 04 9E 48
  vcan0  18EEFEFE  [08]  8F 84 CB 28 F5 20 00 FC
  vcan0  18CAFEFE  [08]  BC C0 BD F4 00 00 00 00
  vcan0  1CEBFEFE  [08]  D6 00 00 00 00 00 00 00
  vcan0  1CECFEFE  [08]  13 FB 05 7F 00 FF 00 00
  vcan0  18C9FEFE  [08]  36 16 BD 03 00 00 00 00
  vcan0  18EAFEFE  [03]  18 C1 D4
  vcan0  14FD6AFE  [08]  00 D2 54 00 00 00 00 00
  vcan0  1CFD69FE  [08]  20 42 0E 60 68 00 00 00
  vcan0  10FD51FE  [08]  01 4A 75 00 00 00 00 00
  vcan0  18FD6BFE  [08]  4A 10 25 07 00 00 00 00
  vcan0  18FD54FE  [22]  39 70 6B 17 28 66 BA F8 AB 67 7B B8 8E B4 BD A5 70 90 0E 93 74 F8
  vcan0  18FD55FE  [22]  2D 9A 8F 4C 48 9A 92 EF C0 87 13 CE 89 7E 85 B1 E7 F1 A2 9B 7C C7
  vcan0  18FD56FE  [22]  3F 9D EC 2F 4F E4 59 FE 21 53 CB EC E4 0D D7 90 96 77 0E 69 0D D9
  vcan0  18FD57FE  [22]  8B FC A5 6D ED 56 EA BB 69 F3 39 C9 41 4A 2C 2C 2E 70 AF B4 4E F7
  vcan0  18FD58FE  [22]  A2 33 6C 6A 7C 11 27 18 82 C5 08 1C B7 17 CC E1 82 C9 55 A5 E0 AE
  vcan0  18FD59FE  [22]  40 A4 F0 7C DA 73 7D AB C9 BB AF DB BA EB 85 C8 2A 4D D4 23 97 B5
  vcan0  18FD5AFE  [22]  0E 06 06 CA A0 71 AC C6 9F BD 98 D3 1A C6 DE B0 E0 48 AA 3B E2 98
  vcan0  18FD5BFE  [22]  65 6A BE 06 7E 92 39 FF 02 CC B1 6A B5 14 68 C1 09 E6 FA 77 DA B8
  vcan0  18FD5CFE  [22]  D7 39 D9 F8 59 01 8D C6 F7 78 E0 91 D5 AB 8C 7B 9B D4 BA D7 A1 78
  vcan0  18FD5DFE  [22]  53 BD AF 8C 1A A0 6C DB 8E B1 87 D2 59 A8 B7 12 D6 9F DF DC 62 C0
  vcan0  18FD5EFE  [22]  5C 46 EF FA 15 09 03 59 3C 19 CF CD 24 38 AC E6 C2 97 45 75 24 5A
  vcan0  18FD5FFE  [22]  3E 37 A7 6C DF E4 D8 4A 88 86 3F 9A CF 51 79 F7 00 9B 74 FB D4 E4
  vcan0  189FFEFE  [22]  01 EC B3 09 AB 93 A0 7E 8A 8E 78 28 21 F0 C1 6D D4 08 C2 A8 B1 22
  vcan0  18FD67FE  [08]  03 00 00 00 00 00 00 00
  vcan0  14FD53FE  [08]  65 0E A6 84 14 C6 00 00
  vcan0  189EFEFE  [08]  7A A4 C3 AB D1 00 00 00
  vcan0  18FD80FE  [22]  2D 62 84 8B 40 8E 0F D1 38 EB 22 70 42 C5 0C 7A 15 74 D3 67 E1 78
  vcan0  18FD82FE  [22]  B1 92 1D 35 05 2D 9F 06 69 D5 B1 E0 92 00 DA 89 CF 5B BB DE 6A D3
  vcan0  18FD90FE  [05]  71 09 0D 08 90
  vcan0  18FD7EFE  [08]  27 25 00 00 00 00 00 00
  vcan0  18FED9FE  [08]  F7 AF 9E 67 39 CF 50 57
  vcan0  18A7FEFE  [08]  8C 58 3A FC 36 B2 09 9F
  vcan0  18A6FEFE  [08]  8E FA 23 EF 45 B6 97 02
  vcan0  18A5FEFE  [08]  09 63 90 27 0F 13 50 17
  vcan0  18FD71FE  [08]  C6 86 6F 98 34 F7 92 01
  vcan0  18FEF5FE  [08]  B4 3E 3C C6 6A 6D 38 AD
  vcan0  18FEDEFE  [08]  26 00 00 00 00 00 00 00
  vcan0  18FEAEFE  [08]  40 14 96 F4 64 67 00 00
  vcan0  18FEF9FE  [08]  D5 9C 0F 30 23 00 00 10
  vcan0  1CFEAAFE  [08]  C4 EC 49 CF 75 00 00 00
  vcan0  18FE51FE  [08]  C3 00 00 00 00 00 00 00
  vcan0  10FE6FFE  [08]  99 8C 70 3B 02 1D 34 00
  vcan0  1CFEA8FE  [08]  07 00 00 00 00 00 00 00
  vcan0  1CFE8CFE  [08]  DD 32 EB D5 73 B5 F7 00
  vcan0  18FEFDFE  [08]  1D ED C2 00 00 00 00 00
  vcan0  18E8FEFE  [08]  01 30 00 00 1D 88 DA 63
  vcan0  18FE4EFE  [08]  E2 00 00 00 00 00 00 00
  vcan0  18F012FE  [08]  4F BB 9B 2E D1 88 00 00
  vcan0  18FDAEFE  [08]  67 A6 01 00 00 00 00 00
  vcan0  0CF013FE  [08]  0B 6C E4 8C 2A EF B2 33
  vcan0  18FEF7FE  [08]  04 CD 66 D2 70 33 74 52
  vcan0  18FDA8FE  [08]  01 00 01 F0 00 00 00 00
  vcan0  18FDA9FE  [08]  00 01 01 60 00 00 00 00
  vcan0  1CFDA7FE  [08]  46 04 00 00 00 00 00 00
  vcan0  0CFDA6FE  [08]  EE E9 2C B6 1A 01 00 00
  vcan0  08F02DFE  [07]  6C C6 41 95 91 56 5C
  vcan0  18FCEAFE  [08]  A9 D4 00 00 00 00 00 00
  vcan0  0CF029FE  [08]  D3 7B 74 19 8A 4E 2F 79
  vcan0  14FD16FE  [08]  0B 0E 09 00 00 00 00 00
  vcan0  1897FEFE  [08]  3C 00 00 00 00 00 00 00
  vcan0  1898FEFE  [08]  07 00 00 00 00 00 00 00
  vcan0  08F02CFE  [08]  14 2A 62 AD 08 00 00 00
  vcan0  18FD12FE  [08]  10 06 05 00 00 00 00 00
  vcan0  18FD13FE  [08]  2B 7B E7 00 00 00 00 00
  vcan0  1896FEFE  [08]  04 00 00 00 00 00 00 00
  vcan0  18FD01FE  [08]  1E 12 50 D1 00 00 00 00
  vcan0  14FCEEFE  [08]  C7 96 F3 AC 38 E3 C1 46
  vcan0  0C99FEFE  [08]  5A AD 8F 2E FD B9 D9 01
  vcan0  18FCE8FE  [08]  07 00 00 00 00 00 00 00
  vcan0  18FD09FE  [08]  1B 2D 44 E9 5A E7 87 50
  vcan0  18F02EFE  [08]  3D FA 3B 9F 00 00 00 00
  vcan0  18FCF1FE  [08]  8F 15 00 00 00 00 00 00
  vcan0  18FCF3FE  [08]  0A 75 B9 E5 00 00 00 00
  vcan0  18FCF2FE  [08]  45 1D 44 04 1F 73 EE E1
  vcan0  18FCFFFE  [08]  31 DB 0B B3 00 00 00 00
  vcan0  1CFD08FE  [08]  27 22 A6 F6 9F C2 00 00
  vcan0  14FCFBFE  [08]  40 06 A1 14 00 00 00 00
  vcan0  1CFCFCFE  [08]  27 BB 40 06 00 00 00 00
  vcan0  0CFD25FE  [08]  13 58 4A 7A 8A 22 68 00
  vcan0  0CFD27FE  [08]  9B 52 D9 F8 EE 97 48 00
  vcan0  0CFD29FE  [08]  EA 69 4E 68 5F 6B 2C 00
  vcan0  0CFD2BFE  [08]  53 4F 7B B8 E1 F3 80 00
  vcan0  0CFD2DFE  [08]  E3 F6 96 B4 E8 22 B0 00
  vcan0  0CFD2FFE  [08]  7A F6 5E 2E 0B 2F C8 00
  vcan0  0CFD23FE  [08]  47 69 23 BC DB 45 EC 00
  vcan0  18FCF0FE  [08]  68 00 00 00 00 00 00 00
  vcan0  14FCEFFE  [08]  DA 16 00 00 00 00 00 00
  vcan0  14FD00FE  [08]  84 0D 90 80 32 27 B6 00
  vcan0  10FCFDFE  [08]  EC 18 DE 87 B6 CC 03 72
  vcan0  1CFCFAFE  [08]  40 06 40 06 00 00 00 00
  vcan0  1CFCFEFE  [08]  87 16 08 26 92 43 00 00
  vcan0  18FCE7FE  [08]  C2 A6 B9 C0 E5 36 7F 00
  vcan0  18FD7CFE  [08]  01 3E A5 7B 18 4B E6 00
  vcan0  18FCF8FE  [08]  2E 5E 62 C8 00 8B 00 00
  vcan0  18FD1BFE  [08]  43 33 36 8B AA 64 1B 00
  vcan0  18FCF9FE  [08]  0D C1 6B 00 33 73 00 00
  vcan0  18FD1CFE  [08]  D5 08 CF 70 D7 D6 15 00
  vcan0  18FD04FE  [08]  0B 03 00 00 00 00 00 00
  vcan0  18FD05FE  [08]  0D 65 D4 00 00 00 00 40
  vcan0  18FD06FE  [08]  4C 00 00 00 00 00 00 00
  vcan0  18A2FEFE  [08]  6F B4 4F DD BB 43 46 76
  vcan0  18A8FEFE  [08]  07 00 08 00 00 00 00 00
  vcan0  18FD70FE  [08]  3D 23 13 00 0B 00 00 00
  vcan0  18FD7FFE  [08]  6A 00 00 00 00 00 00 00
  vcan0  18FD94FE  [08]  0D 7F 5A 6B 44 63 27 50
  vcan0  18FD6FFE  [08]  40 06 E3 6D 7C 2C E8 00
  vcan0  18FD88FE  [08]  2C 5B CC 2D C1 C6 B7 84
  vcan0  18FD87FE  [08]  74 1E B7 65 D6 0D 2B B1
  vcan0  18FD86FE  [08]  45 06 EB 07 3B B8 09 CB
  vcan0  18FD85FE  [08]  2E B5 C7 BB 45 10 88 3B
  vcan0  18FD84FE  [08]  60 4F 52 ED DB 74 0D 3E
  vcan0  14FD81FE  [08]  4D 00 00 00 00 00 00 00
  vcan0  18FD77FE  [08]  A9 6B 56 A3 9B A9 96 97
  vcan0  18FD76FE  [08]  D1 39 AB 80 50 B4 1F DE
  vcan0  18FD75FE  [08]  5C BF DB 6A EF 75 D0 D5
  vcan0  18FD74FE  [08]  CE B4 E5 16 05 B4 A0 85
  vcan0  18FD73FE  [08]  95 E8 77 0C CB 21 B7 F4
  vcan0  18FD72FE  [08]  6E 82 17 A5 42 2C 83 D7
  vcan0  18A9FEFE  [08]  03 00 00 00 00 00 00 00
  vcan0  1CFD8AFE  [08]  B1 00 00 00 00 00 6C 00
  vcan0  18F01DFE  [08]  5C 8D 5F 00 E6 08 0A E2
  vcan0  18FD6EFE  [08]  14 CB B2 BD 64 43 20 00
  vcan0  18FD83FE  [08]  04 00 00 00 00 00 00 00
  vcan0  18FD95FE  [08]  3B 96 B0 25 00 00 00 00
  vcan0  18FD89FE  [08]  3D 3A 00 00 00 00 00 00
  vcan0  1CFEB7FE  [10]  67 6C 80 B4 63 24 B9 DF 42 F5
  vcan0  18FE40FE  [08]  6D 43 48 2A 89 94 3D EC
  vcan0  0CFE41FE  [08]  E6 C1 AE 48 61 11 1E CF
  vcan0  0CFE72FE  [08]  3F 8B 00 00 01 00 00 00
  vcan0  1CFE87FE  [08]  33 24 02 F7 A4 44 02 B7
  vcan0  1CFE86FE  [08]  4B A7 80 B0 F5 F1 28 CD
  vcan0  1CFE85FE  [08]  60 F6 93 99 C2 24 56 DD
  vcan0  1CFE84FE  [08]  10 07 6C B6 2A D9 B4 23
  vcan0  1CFE83FE  [08]  6F 57 F1 09 63 D7 DA 14
  vcan0  1CFE82FE  [08]  92 13 6E 5D 3E 32 3A F5
  vcan0  1CFE8AFE  [08]  3A DB 4A 3C 00 00 00 00
  vcan0  1CFE89FE  [08]  E1 E6 87 4B CD F8 F2 DD
  vcan0  1CFE88FE  [08]  24 0D D6 79 8C 02 F8 F3
  vcan0  18FDC8FE  [08]  01 00 00 00 00 00 00 00
  vcan0  18FDCAFE  [08]  0F 00 00 00 00 00 00 00
  vcan0  18FEDCFE  [08]  98 95 F6 83 94 DF 5F 73
  vcan0  1CFEA5FE  [08]  22 40 4E B0 BF 00 00 00
  vcan0  18FEA6FE  [08]  F2 9C EC B9 96 96 8A D9
  vcan0  18FDD0FE  [08]  B0 A5 28 AD 48 4D C0 98
  vcan0  18FEF6FE  [08]  3D 43 50 8E F1 BA 3B 3D
  vcan0  18FE6DFE  [08]  73 BC DA 03 D4 00 00 00
  vcan0  08FE6EFE  [08]  6F F5 3A 1C C1 8B 06 43
  vcan0  18F008FE  [08]  21 EE 05 00 00 00 00 00
  vcan0  18FEE5FE  [08]  EA 06 55 28 11 E3 95 2E
  vcan0  0CFDE6FE  [08]  00 00 23 08 00 00 00 00
  vcan0  1CFEB8FE  [22]  A7 2D AD B8 84 CB 17 76 23 FD 01 F0 94 28 CD 82 74 27 C2 20 9A 5D
  vcan0  1CFE8BFE  [08]  C9 99 1C E6 BE 9A 52 82
  vcan0  1CFE81FE  [08]  F3 9E CF 44 7E 94 01 27
  vcan0  1CFEB2FE  [08]  03 1A FD 3A 33 56 88 08
  vcan0  18FE55FE  [08]  90 71 00 00 00 00 00 00
  vcan0  1CFEAFFE  [08]  A9 5D B8 DD B3 89 BE 5C
  vcan0  18FD9CFE  [08]  36 ED 52 5B 50 C8 1B 2B
  vcan0  18FD9DFE  [08]  98 BC 12 CE 77 AF 6B 98
  vcan0  18FDA4FE  [08]  0A 27 5A 27 82 35 00 00
  vcan0  10FDA2FE  [08]  B0 7E F6 3D EA 00 5E AB
  vcan0  18FDAAFE  [08]  40 69 06 5B 10 2E 38 7C
  vcan0  10FDA3FE  [08]  40 06 1B 0A 40 06 2C 10
  vcan0  18FDA5FE  [08]  0F AE E1 59 9E 49 3E 02
  vcan0  18FD9BFE  [08]  4A A6 DE 14 16 00 00 00
  vcan0  0CF01CFE  [08]  7A 53 CA 97 00 00 00 00
  vcan0  10F01AFE  [08]  7B C7 84 51 E0 E2 28 F3
  vcan0  0CF019FE  [08]  50 92 74 FA 22 E9 4C B2
  vcan0  0CF018FE  [08]  22 61 6C DF D8 A5 A5 9A
  vcan0  0CF017FE  [08]  89 D5 C7 D7 CA CA EA AE
  vcan0  0CF016FE  [08]  F9 66 8E 25 22 D6 00 00
  vcan0  0CF015FE  [08]  B4 78 1F 98 B2 42 00 00
  vcan0  0CF014FE  [08]  6B 73 BD C2 19 04 00 00
  vcan0  0C02FEFE  [08]  85 04 90 38 5E 0D 00 00
  vcan0  18FEC9FE  [08]  01 00 00 00 50 22 00 00
  vcan0  1803FEFE  [08]  41 04 C3 D8 94 40 B9 00
  vcan0  18FEC4FE  [08]  10 54 41 00 CA 37 85 05
  vcan0  0CFEC6FE  [08]  11 CA EA E7 C1 A8 98 3D
  vcan0  18E2FEFE  [08]  00 07 00 00 00 00 00 00
  vcan0  18FE5DFE  [08]  A2 0E A1 5C 08 00 00 00
  vcan0  0CFE5FFE  [08]  02 2C 65 6E F6 7C F8 30
  vcan0  18FE61FE  [08]  46 ED 11 05 A5 AA 01 75
  vcan0  18FE63FE  [08]  CF 0C 70 67 2A E7 63 00
  vcan0  18FE65FE  [08]  62 E4 00 00 00 00 00 00
  vcan0  18E1FEFE  [08]  00 00 00 00 00 00 00 00
  vcan0  18FEC8FE  [08]  01 00 B5 86 F0 6B 2A 00
  vcan0  0CFE60FE  [08]  64 0D F4 7B 5A 8F 3E 4C
  vcan0  18FE62FE  [08]  9A 05 04 54 00 00 00 00
  vcan0  18FE64FE  [08]  14 54 05 45 54 05 00 00
  vcan0  18DBFEFE  [08]  11 62 00 00 00 00 00 00
  vcan0  18DAFEFE  [08]  23 00 00 00 00 00 00 00
  vcan0  18EDFEFE  [08]  01 0F 01 00 00 00 00 00
  vcan0  18E4FEFE  [08]  D2 05 11 6D 79 96 C9 00
  vcan0  18E5FEFE  [08]  D5 04 44 1D 7F C0 BD B1
  vcan0  18FE5CFE  [08]  AA E2 2A 95 00 00 00 00
  vcan0  18FE5EFE  [08]  00 F8 99 F9 F9 00 00 00
  vcan0  18FDB8FE  [08]  06 DE 03 42 A2 00 1B 09
  vcan0  0C04FEFE  [08]  31 4F 1E 00 00 00 00 00
  vcan0  18FEFFFE  [08]  01 00 00 00 00 00 00 00
  vcan0  18FEEAFE  [08]  30 43 B6 70 C0 47 43 00
  vcan0  18FE52FE  [08]  16 A1 16 F2 00 00 00 00
  vcan0  1CFE8DFE  [08]  B0 61 9D E1 38 18 F0 6D
  vcan0  18FEF3FE  [08]  24 00 00 00 0E 00 00 00
  vcan0  18FEECFE  [08]  3B 00 00 00 00 00 00 00
  vcan0  18FEE7FE  [08]  3E 4D C2 9D 2F 15 41 74
  vcan0  18FE68FE  [08]  D8 01 EC 00 00 00 00 00
  vcan0  18FEE8FE  [08]  F1 96 F8 83 F5 1C AD 0A
  vcan0  18FEC1FE  [08]  84 30 38 00 25 AF 37 00
  vcan0  18F009FE  [08]  BF DA 9F DE A2 83 F6 C3
  vcan0  18FE4FFE  [08]  14 B2 00 00 00 00 00 00
  vcan0  18FEE0FE  [08]  07 67 EE 4F D9 B3 80 73
  vcan0  1CFEB6FE  [08]  15 D4 D1 39 64 D1 00 00
  vcan0  1CFEB0FE  [20]  80 EC CB 82 C9 33 1D 53 0F 26 0F 3D F2 6F 32 1A 4F 4B 23 85
  vcan0  1CFEB4FE  [16]  A6 B7 B8 22 44 EB 7F 1A 7E 23 E4 CC 50 98 DF 4A
  vcan0  1CFEB5FE  [08]  38 52 FA AC F4 36 48 70
  vcan0  18FDC0FE  [08]  02 4C 3D 00 00 00 00 00
  vcan0  18FDBAFE  [08]  02 11 00 00 00 00 00 00
  vcan0  18FDBBFE  [08]  26 07 A3 1D 12 1E 09 EF
  vcan0  18FDBCFE  [15]  14 00 00 73 9B B7 75 47 CD A9 B3 21 63 00 00
  vcan0  18FDBDFE  [08]  18 B3 FB 3F 00 00 00 00
  vcan0  18FDBFFE  [08]  A6 00 00 00 00 00 00 00
  vcan0  18FDBEFE  [04]  2E 46 A4 50
  vcan0  18AEFEFE  [08]  13 DC 00 00 00 00 00 00
  vcan0  18FDB9FE  [08]  10 5E 00 00 00 00 00 00
  vcan0  1CFE7AFE  [08]  EE 78 AA 06 C4 93 00 00
  vcan0  1CFE79FE  [08]  06 1A 4B C9 5B B2 00 00
  vcan0  1CFE78FE  [08]  2A 05 16 2A 91 00 00 00
  vcan0  1CFEBBFE  [16]  25 E0 58 51 C3 C1 DD 5C FD 15 0B 6E 1C 1A FC D7
  vcan0  1CFEBAFE  [12]  0C 84 DF 9F BD A5 47 EA B4 A6 72 0E
  vcan0  18D5FEFE  [08]  2B C0 81 D2 C2 64 02 25
  vcan0  18FEE6FE  [08]  3C F1 DB 5A DE D6 23 78
  vcan0  18FE96FE  [08]  37 B8 CF C1 08 A2 CA 62
  vcan0  0CFE6CFE  [08]  21 27 03 36 56 52 BE BD
  vcan0  18FDD3FE  [08]  D2 3E 53 05 9B 46 D8 65
  vcan0  18FE97FE  [08]  6B 4F E4 76 5F E3 67 0D
  vcan0  18FE98FE  [08]  DB 56 73 33 6A E5 A6 DA
  vcan0  18FE99FE  [08]  88 E1 E9 1B 27 33 E5 38
  vcan0  18FE9AFE  [08]  1D E6 66 EC 37 09 22 5B
  vcan0  1CFE9BFE  [08]  B6 C2 57 C9 F7 B5 55 00
  vcan0  18FE4BFE  [08]  80 A7 00 00 00 00 00 00
  vcan0  18FEE2FE  [08]  85 33 DC C9 00 00 00 00
  vcan0  18FEDDFE  [08]  67 2F 87 C0 00 00 00 00
  vcan0  1CFE4DFE  [08]  C5 41 C7 F0 00 00 00 00
  vcan0  18FDE2FE  [08]  31 AA 4A 81 43 48 00 00
  vcan0  18FE8FFE  [08]  53 86 00 00 00 00 00 00
  vcan0  18FEDAFE  [08]  74 EE AB FE 00 00 00 00
  vcan0  18FEE4FE  [08]  8C C0 11 00 BB C0 A2 09
  vcan0  18FEC0FE  [08]  A9 EC F0 FA 12 18 01 C6
  vcan0  1CFE8EFE  [08]  48 5C F9 00 00 00 00 00
  vcan0  18FE53FE  [08]  AB 17 F7 A4 3A AA 6B 81
  vcan0  18FEFBFE  [08]  1C 22 00 00 00 00 00 00
  vcan0  1CDEFEFE  [08]  0C 6B 04 DD 00 00 00 00
  vcan0  18FEE1FE  [19]  1E F0 D5 D0 A6 A9 9C C7 84 A6 F9 67 46 B5 B5 22 2E C3 40
  vcan0  1CFE95FE  [08]  72 33 94 4C 00 00 00 00
  vcan0  18FEF0FE  [08]  8D 68 5C 81 63 18 C0 39
  vcan0  18FDCDFE  [08]  54 00 7C F3 6E 7C 40 00
  vcan0  18FDCBFE  [08]  1F 00 F1 1E 00 00 00 00
  vcan0  18FDC7FE  [08]  1B 00 EF FF 00 00 00 00
  vcan0  0CFDCCFE  [08]  42 E0 CA A9 3A 00 00 00
  vcan0  18FDE5FE  [08]  DF 42 EA BF 3B 0E F9 F2
  vcan0  18FE4CFE  [08]  26 00 00 C2 00 00 00 B7
  vcan0  18FDDCFE  [08]  D0 00 00 00 00 00 00 00
  vcan0  18FE9CFE  [08]  D8 71 61 AD EC 38 00 00
  vcan0  18FE9DFE  [08]  4D 69 CA 2E 3C 73 A2 A7
  vcan0  18FE9EFE  [08]  EF 3D 7F DA FA CF CE 45
  vcan0  10FE76FE  [08]  20 F2 F2 00 00 00 00 00
  vcan0  0CFE75FE  [08]  F1 19 01 00 00 B1 D8 00
  vcan0  0CFE71FE  [08]  8E 98 17 32 69 90 01 00
  vcan0  1CFEB9FE  [22]  FC 7A 23 4A 4A 1B 4D 19 0D 84 B8 7F 03 01 AA 9D DD E7 89 B0 3E 6A
  vcan0  0CFE74FE  [08]  A0 AA 01 00 00 00 00 00
  vcan0  0CF00DFE  [08]  F3 11 E3 13 F3 00 00 00
  vcan0  0CFE73FE  [08]  35 48 00 00 00 00 00 00
  vcan0  1CFEB3FE  [08]  AF 50 2B 2F 57 75 28 00
  vcan0  18FEF2FE  [08]  D2 03 5E 94 44 61 3A 9D
  vcan0  18FEE9FE  [08]  66 38 23 30 82 EE EF CE
  vcan0  1CFDDFFE  [08]  03 00 00 00 00 00 00 00
  vcan0  1CFDD1FE  [08]  06 2A 00 00 00 00 00 00
  vcan0  18FE5BFE  [08]  C8 00 00 00 00 00 00 00
  vcan0  10F007FE  [08]  D8 00 00 00 00 00 00 00
  vcan0  1CFE91FE  [08]  0B 00 00 00 00 00 00 00
  vcan0  18FEBDFE  [08]  0C 05 AE F2 39 D8 40 00
  vcan0  18FE90FE  [33]  C2 65 60 26 C5 9E A3 F0 AF 4A 70 E5 62 B6 0A 64 95 47 D5 62 2A F5 56 64 D2 D6 79 FD 4D 3D 70 D5 44
  vcan0  18FE4AFE  [08]  23 CE D1 59 E9 0F 00 00
  vcan0  1CFEC3FE  [08]  0F 2E 00 00 00 00 00 00
  vcan0  1CFEC5FE  [08]  D7 09 00 00 00 00 00 00
  vcan0  1CFEC7FE  [08]  C9 70 36 62 79 4E 00 00
  vcan0  0CF002FE  [08]  C1 8F 03 54 37 AF AC 3F
  vcan0  18FE69FE  [08]  10 0F 43 73 E5 92 DC 58
  vcan0  18FEA4FE  [08]  1C 20 30 3C 6B 4F 45 41
  vcan0  18FEEEFE  [08]  B2 AA 31 6D 29 84 A7 50
  vcan0  18FE07FE  [08]  11 48 C0 CA 00 00 00 00
  vcan0  18F00BFE  [08]  39 08 31 02 01 01 00 00
  vcan0  1CFEC2FE  [08]  02 00 00 00 00 00 00 00
  vcan0  18F000FE  [08]  96 9F B6 36 A7 80 A8 82
  vcan0  1CFE9FFE  [08]  9D F9 5F 74 D7 42 F0 A3
  vcan0  18FEA0FE  [08]  CD 9C DF 8B 92 D9 D7 D7
  vcan0  1CFEA1FE  [08]  2D E9 58 6A 92 8D F0 9D
  vcan0  1CFEA2FE  [08]  F5 8D B0 D5 5A EA 67 19
  vcan0  1CFEA3FE  [08]  66 6C EB 25 CC C2 B1 E5
  vcan0  18FDE4FE  [08]  16 00 00 00 00 00 00 00
  vcan0  18FDD2FE  [08]  95 66 38 00 00 00 00 00
  vcan0  18FDE3FE  [08]  32 00 00 00 00 00 00 00
  vcan0  1CFEA9FE  [08]  EA 92 87 61 3D 71 F9 80
  vcan0  0CFDDBFE  [08]  6A E3 CB AE 1A 68 74 00
  vcan0  0CFDD9FE  [08]  FB 8B 65 6B 12 80 60 00
  vcan0  0CFDD7FE  [08]  7B 37 EB 8A 09 CF 40 00
  vcan0  1CFE92FE  [08]  60 A3 F3 6B 17 C5 B3 4C
  vcan0  1CFEB1FE  [08]  F4 1C DA 0F 66 2B 02 F7
  vcan0  0CF00AFE  [08]  FF C1 7F 39 85 06 00 00
  vcan0  18FE6AFE  [07]  6F 4C BA 0A 5C 57 11
  vcan0  18FDC1FE  [08]  B8 5E 4A E8 32 09 00 00
  vcan0  18FEDBFE  [08]  F7 76 F2 C8 6A 53 D9 F9
  vcan0  18FEEFFE  [08]  46 3E EF AD B7 D9 96 29
  vcan0  1CFE93FE  [08]  7D AC 08 00 00 00 00 00
  vcan0  18FDD5FE  [08]  B4 93 A2 45 1E 14 11 03
  vcan0  1CFEBEFE  [08]  A9 CD B7 D3 00 44 00 00
  vcan0  0CF003FE  [08]  62 7C 23 2F 82 76 5B E9
  vcan0  0CF004FE  [08]  01 66 7B 07 00 3C 08 B3
  vcan0  18FDC5FE  [08]  E5 61 46 75 00 00 00 00
  vcan0  18FE54FE  [08]  1C 22 47 D6 2B CD A9 B0
  vcan0  18FEE3FE  [39]  7D 81 E0 68 22 7D 90 51 AE FD 71 F0 B7 D1 01 B4 2D 49 1C ED 54 94 C4 0D AD D2 8D 7A E3 6B CC 8D 13 86 01 01 01 01 01
  vcan0  18FDC4FE  [08]  5A 31 3E 03 00 00 00 00
  vcan0  1CFEACFE  [08]  F7 B2 F8 B8 14 6F 91 A6
  vcan0  18FEADFE  [08]  A7 8C 27 1E D2 A9 6E D9
  vcan0  18FEBFFE  [08]  DC F5 A6 F8 7E 7A 16 B4
  vcan0  18F001FE  [08]  80 B5 B8 44 DF D8 E0 5C
  vcan0  18F006FE  [08]  0C 10 22 0B 00 00 00 00
  vcan0  18FE94FE  [08]  4F B6 12 00 00 00 00 00
  vcan0  18FE6BFE  [08]  24 23 00 00 00 00 00 00
  vcan0  18FEFCFE  [08]  29 DC 06 EB BB EA 08 00
  vcan0  18FDC6FE  [08]  02 1F 00 00 00 00 00 00
  vcan0  18FE70FE  [08]  C6 E6 67 5A 00 00 00 00
  vcan0  18CFFEFE  [08]  12 0D 9E E5 6B 99 C1 4B
  vcan0  1CFE80FE  [08]  C1 31 D3 9F 00 00 00 00
  vcan0  1CFE7FFE  [08]  73 38 57 8B BB BD 10 4F
  vcan0  1CFE7EFE  [08]  5E 45 74 EA 74 53 3D EE
  vcan0  1CFE7DFE  [08]  4B 9B BD BF 23 A3 8F BE
  vcan0  1CFE7CFE  [08]  A9 C7 77 03 61 08 4F 4A
  vcan0  1CFE7BFE  [08]  9F 7A D8 C0 19 48 94 A3
  vcan0  1CFDC9FE  [08]  FB 6F 00 00 00 00 00 00
  vcan0  18FDD4FE  [08]  07 0A 02 00 00 00 00 00
  vcan0  18E0FEFE  [08]  07 FF 47 82 5C A8 DF 00
  vcan0  18D0FEFE  [08]  21 00 00 00 00 00 00 00
  vcan0  18FEEBFE  [08]  88 4D 5E 54 00 00 00 00
  vcan0  18FEF1FE  [08]  C6 F3 0F 8E 9A 10 26 59
  vcan0  18FEEDFE  [08]  EE 52 24 00 00 00 00 00
  vcan0  18FE67FE  [08]  7D 8D 00 00 00 00 00 00
  vcan0  1CFEBCFE  [16]  BA 42 BD 1E CF ED 4A 5B 4E 5D 5C 85 60 B2 9D BC
  vcan0  18FDE1FE  [08]  6A 00 00 00 00 00 00 00
  vcan0  18FE50FE  [08]  01 B7 00 00 00 00 00 00
  vcan0  18FD07FE  [08]  85 EC D8 00 00 00 00 00
  vcan0  1CFD18FE  [08]  27 77 1E 23 86 E3 06 2E
  vcan0  00F02BFE  [08]  02 00 00 00 00 00 00 12
  vcan0  18FCF5FE  [08]  CB CD 8E BF DC 00 00 00
  vcan0  18FCF4FE  [08]  F4 0E 9B 2D 81 14 70 00
  vcan0  18FCF7FE  [08]  23 DB 5E 6C B0 00 00 00
  vcan0  18FCF6FE  [08]  C5 36 5A 41 E6 00 00 00
  vcan0  0CFD26FE  [08]  94 C9 D1 60 A0 6C 88 BE
  vcan0  0CFD28FE  [08]  D5 80 76 62 80 D5 06 C9
  vcan0  0CFD2AFE  [08]  39 E7 07 6E 10 CD 6E 1A
  vcan0  0CFD2CFE  [08]  EB BE C7 B5 E0 51 23 A9
  vcan0  0CFD2EFE  [08]  D3 9D E6 78 30 86 84 EF
  vcan0  0CFD30FE  [08]  92 4D 6B 71 E0 19 A4 32
  vcan0  0CFD24FE  [08]  3F 75 D2 55 D0 6D 58 60
  vcan0  14FD17FE  [08]  68 B7 16 00 00 00 00 00
  vcan0  18FD14FE  [08]  11 67 64 D7 81 00 00 00
  vcan0  18FD15FE  [08]  11 80 3C 66 49 00 00 00
  vcan0  18FD1DFE  [08]  C0 E1 A1 05 00 00 00 00
  vcan0  18FD1EFE  [08]  BA 22 8F BD 00 00 00 00
  vcan0  18FCEDFE  [08]  43 9C F3 0F 00 00 00 00
  vcan0  18FD45FE  [08]  49 08 FC 1C 4F 4F 0C 65
  vcan0  0CFD0AFE  [08]  A9 D3 27 8E 00 00 00 00
  vcan0  0CFD0BFE  [08]  E9 DC 60 02 16 00 00 00
  vcan0  0CFD0CFE  [08]  CF DD E8 05 00 00 00 00
  vcan0  0CFD0DFE  [08]  64 14 8C 06 D2 00 00 00
  vcan0  18FD44FE  [08]  DD D8 04 40 06 00 00 00
  vcan0  0095FEFE  [08]  8A 26 B3 E4 00 00 00 00
  vcan0  18FD1AFE  [08]  05 84 BF A9 00 00 00 00
  vcan0  18FD46FE  [08]  55 4A 6A 8E 53 D9 1D 7C
  vcan0  18FE56FE  [08]  00 18 F8 46 13 1A 00 10
  vcan0  0CFD0EFE  [08]  07 37 BC AA 00 00 00 00
  vcan0  0CFD0FFE  [08]  22 3F B3 03 95 00 00 00
  vcan0  0CFD10FE  [08]  8F D6 F2 BB 00 00 00 00
  vcan0  0CFD11FE  [08]  6A E5 39 07 67 00 00 00
  vcan0  0094FEFE  [08]  8E 08 93 06 00 00 00 00
  vcan0  18FCE9FE  [08]  8A 00 00 00 00 00 00 00
  vcan0  0CF02AFE  [08]  37 05 F2 A7 68 81 29 F7
  vcan0  18FCEBFE  [08]  01 00 00 00 00 00 00 00
  vcan0  18FCECFE  [08]  07 00 00 00 00 00 00 00
  vcan0  00FD37FE  [08]  FB 95 83 3D 7A 00 00 00
  vcan0  18FD34FE  [08]  3E DC 67 35 11 04 00 00
  vcan0  18FD35FE  [08]  00 32 14 D7 1A 15 59 0D
  vcan0  18FD33FE  [08]  D0 94 A1 8D 57 03 25 00
  vcan0  18FD36FE  [08]  D9 BA 88 03 12 01 00 00
  vcan0  18FD38FE  [08]  BC 7D 14 25 DC 11 00 00
  vcan0  18FD39FE  [08]  82 28 1B 00 00 00 00 00
  vcan0  00FD3AFE  [08]  14 E7 92 F2 00 00 00 00
  vcan0  0CF027FE  [08]  10 4F 04 3C 53 00 00 00
  vcan0  18FD3BFE  [08]  8C 32 B7 01 5C 26 42 16
  vcan0  0CF026FE  [08]  ED D3 09 36 16 80 00 00
  vcan0  0CF028FE  [08]  1A 9F 14 1B 08 03 00 00
  vcan0  18FD21FE  [08]  9D 57 BA 92 36 85 85 1B
